date Mon Jul 27 10:00:00.000 am 2026
base hex  timestamps absolute
no internal events logged
0.000000 1 CF00400x Rx d 8 FF 7D 82 00 19 FF FF FF
0.000000 1 CF00300x Rx d 8 FD 00 0A FF FF FF FF FF
0.000000 1 18FEF100x Rx d 8 F7 00 00 00 FF FF FF FF
0.050000 1 CF00300x Rx d 8 FD 00 0A FF FF FF FF FF
0.100000 1 CF00400x Rx d 8 FF 7D 82 00 19 FF FF FF
0.100000 1 CF00300x Rx d 8 FD 00 0A FF FF FF FF FF
0.100000 1 18FEF100x Rx d 8 F7 00 00 00 FF FF FF FF
0.150000 1 CF00300x Rx d 8 FD 00 0A FF FF FF FF FF
0.200000 1 CF00400x Rx d 8 FF 7D 82 00 19 FF FF FF
0.200000 1 CF00300x Rx d 8 FD 00 0A FF FF FF FF FF
0.200000 1 18FEF100x Rx d 8 F7 00 00 00 FF FF FF FF
0.250000 1 CF00300x Rx d 8 FD 00 0A FF FF FF FF FF
0.300000 1 CF00400x Rx d 8 FF 7D 82 00 19 FF FF FF
0.300000 1 CF00300x Rx d 8 FD 00 0A FF FF FF FF FF
0.300000 1 18FEF100x Rx d 8 F7 00 00 00 FF FF FF FF
0.350000 1 CF00300x Rx d 8 FD 00 0A FF FF FF FF FF
0.400000 1 CF00400x Rx d 8 FF 7D 82 00 19 FF FF FF
0.400000 1 CF00300x Rx d 8 FD 00 0A FF FF FF FF FF
0.400000 1 18FEF100x Rx d 8 F7 00 00 00 FF FF FF FF
0.450000 1 CF00300x Rx d 8 FD 00 0A FF FF FF FF FF
0.500000 1 CF00400x Rx d 8 FF 7D 82 00 19 FF FF FF
0.500000 1 CF00300x Rx d 8 FD 00 0A FF FF FF FF FF
0.500000 1 18FEF100x Rx d 8 F7 00 00 00 FF FF FF FF
0.550000 1 CF00300x Rx d 8 FD 00 0A FF FF FF FF FF
0.600000 1 CF00400x Rx d 8 FF 7D 82 00 19 FF FF FF
0.600000 1 CF00300x Rx d 8 FD 00 0A FF FF FF FF FF
0.600000 1 18FEF100x Rx d 8 F7 00 00 00 FF FF FF FF
0.650000 1 CF00300x Rx d 8 FD 00 0A FF FF FF FF FF
0.700000 1 CF00400x Rx d 8 FF 7D 82 00 19 FF FF FF
0.700000 1 CF00300x Rx d 8 FD 00 0A FF FF FF FF FF
0.700000 1 18FEF100x Rx d 8 F7 00 00 00 FF FF FF FF
0.750000 1 CF00300x Rx d 8 FD 00 0A FF FF FF FF FF
0.800000 1 CF00400x Rx d 8 FF 7D 82 00 19 FF FF FF
0.800000 1 CF00300x Rx d 8 FD 00 0A FF FF FF FF FF
0.800000 1 18FEF100x Rx d 8 F7 00 00 00 FF FF FF FF
0.850000 1 CF00300x Rx d 8 FD 00 0A FF FF FF FF FF
0.900000 1 CF00400x Rx d 8 FF 7D 82 00 19 FF FF FF
0.900000 1 CF00300x Rx d 8 FD 00 0A FF FF FF FF FF
0.900000 1 18FEF100x Rx d 8 F7 00 00 00 FF FF FF FF
0.950000 1 CF00300x Rx d 8 FD 00 0A FF FF FF FF FF
1.000000 1 CF00400x Rx d 8 FF 7D 82 00 19 FF FF FF
1.000000 1 CF00300x Rx d 8 FD 00 0A FF FF FF FF FF
1.000000 1 18FEF100x Rx d 8 F7 00 00 00 FF FF FF FF
1.050000 1 CF00300x Rx d 8 FD 00 0A FF FF FF FF FF
1.100000 1 CF00400x Rx d 8 FF 7D 82 00 19 FF FF FF
1.100000 1 CF00300x Rx d 8 FD 00 0A FF FF FF FF FF
1.100000 1 18FEF100x Rx d 8 F7 00 00 00 FF FF FF FF
1.150000 1 CF00300x Rx d 8 FD 00 0A FF FF FF FF FF
1.200000 1 CF00400x Rx d 8 FF 7D 82 00 19 FF FF FF
1.200000 1 CF00300x Rx d 8 FD 00 0A FF FF FF FF FF
1.200000 1 18FEF100x Rx d 8 F7 00 00 00 FF FF FF FF
1.250000 1 CF00300x Rx d 8 FD 00 0A FF FF FF FF FF
1.300000 1 CF00400x Rx d 8 FF 7D 82 00 19 FF FF FF
1.300000 1 CF00300x Rx d 8 FD 00 0A FF FF FF FF FF
1.300000 1 18FEF100x Rx d 8 F7 00 00 00 FF FF FF FF
1.350000 1 CF00300x Rx d 8 FD 00 0A FF FF FF FF FF
1.400000 1 CF00400x Rx d 8 FF 7D 82 00 19 FF FF FF
1.400000 1 CF00300x Rx d 8 FD 00 0A FF FF FF FF FF
1.400000 1 18FEF100x Rx d 8 F7 00 00 00 FF FF FF FF
1.450000 1 CF00300x Rx d 8 FD 00 0A FF FF FF FF FF
1.500000 1 CF00400x Rx d 8 FF 7D 82 00 19 FF FF FF
1.500000 1 CF00300x Rx d 8 FD 00 0A FF FF FF FF FF
1.500000 1 18FEF100x Rx d 8 F7 00 00 00 FF FF FF FF
1.550000 1 CF00300x Rx d 8 FD 00 0A FF FF FF FF FF
1.600000 1 CF00400x Rx d 8 FF 7D 82 00 19 FF FF FF
1.600000 1 CF00300x Rx d 8 FD 00 0A FF FF FF FF FF
1.600000 1 18FEF100x Rx d 8 F7 00 00 00 FF FF FF FF
1.650000 1 CF00300x Rx d 8 FD 00 0A FF FF FF FF FF
1.700000 1 CF00400x Rx d 8 FF 7D 82 00 19 FF FF FF
1.700000 1 CF00300x Rx d 8 FD 00 0A FF FF FF FF FF
1.700000 1 18FEF100x Rx d 8 F7 00 00 00 FF FF FF FF
1.750000 1 CF00300x Rx d 8 FD 00 0A FF FF FF FF FF
1.800000 1 CF00400x Rx d 8 FF 7D 82 00 19 FF FF FF
1.800000 1 CF00300x Rx d 8 FD 00 0A FF FF FF FF FF
1.800000 1 18FEF100x Rx d 8 F7 00 00 00 FF FF FF FF
1.850000 1 CF00300x Rx d 8 FD 00 0A FF FF FF FF FF
1.900000 1 CF00400x Rx d 8 FF 7D 82 00 19 FF FF FF
1.900000 1 CF00300x Rx d 8 FD 00 0A FF FF FF FF FF
1.900000 1 18FEF100x Rx d 8 F7 00 00 00 FF FF FF FF
1.950000 1 CF00300x Rx d 8 FD 00 0A FF FF FF FF FF
2.000000 1 CF00400x Rx d 8 FF 7D 82 00 19 FF FF FF
2.000000 1 CF00300x Rx d 8 FD 00 0A FF FF FF FF FF
2.000000 1 18FEF100x Rx d 8 F7 00 00 00 FF FF FF FF
2.050000 1 CF00300x Rx d 8 FD 00 0A FF FF FF FF FF
2.100000 1 CF00400x Rx d 8 FF 7D 82 00 19 FF FF FF
2.100000 1 CF00300x Rx d 8 FD 00 0A FF FF FF FF FF
2.100000 1 18FEF100x Rx d 8 F7 00 00 00 FF FF FF FF
2.150000 1 CF00300x Rx d 8 FD 00 0A FF FF FF FF FF
2.200000 1 CF00400x Rx d 8 FF 7D 82 00 19 FF FF FF
2.200000 1 CF00300x Rx d 8 FD 00 0A FF FF FF FF FF
2.200000 1 18FEF100x Rx d 8 F7 00 00 00 FF FF FF FF
2.250000 1 CF00300x Rx d 8 FD 00 0A FF FF FF FF FF
2.300000 1 CF00400x Rx d 8 FF 7D 82 00 19 FF FF FF
2.300000 1 CF00300x Rx d 8 FD 00 0A FF FF FF FF FF
2.300000 1 18FEF100x Rx d 8 F7 00 00 00 FF FF FF FF
2.350000 1 CF00300x Rx d 8 FD 00 0A FF FF FF FF FF
2.400000 1 CF00400x Rx d 8 FF 7D 82 00 19 FF FF FF
2.400000 1 CF00300x Rx d 8 FD 00 0A FF FF FF FF FF
2.400000 1 18FEF100x Rx d 8 F7 00 00 00 FF FF FF FF
2.450000 1 CF00300x Rx d 8 FD 00 0A FF FF FF FF FF
2.500000 1 CF00400x Rx d 8 FF 7D 82 00 19 FF FF FF
2.500000 1 CF00300x Rx d 8 FD 00 0A FF FF FF FF FF
2.500000 1 18FEF100x Rx d 8 F7 00 00 00 FF FF FF FF
2.550000 1 CF00300x Rx d 8 FD 00 0A FF FF FF FF FF
2.600000 1 CF00400x Rx d 8 FF 7D 82 00 19 FF FF FF
2.600000 1 CF00300x Rx d 8 FD 00 0A FF FF FF FF FF
2.600000 1 18FEF100x Rx d 8 F7 00 00 00 FF FF FF FF
2.650000 1 CF00300x Rx d 8 FD 00 0A FF FF FF FF FF
2.700000 1 CF00400x Rx d 8 FF 7D 82 00 19 FF FF FF
2.700000 1 CF00300x Rx d 8 FD 00 0A FF FF FF FF FF
2.700000 1 18FEF100x Rx d 8 F7 00 00 00 FF FF FF FF
2.750000 1 CF00300x Rx d 8 FD 00 0A FF FF FF FF FF
2.800000 1 CF00400x Rx d 8 FF 7D 82 00 19 FF FF FF
2.800000 1 CF00300x Rx d 8 FD 00 0A FF FF FF FF FF
2.800000 1 18FEF100x Rx d 8 F7 00 00 00 FF FF FF FF
2.850000 1 CF00300x Rx d 8 FD 00 0A FF FF FF FF FF
2.900000 1 CF00400x Rx d 8 FF 7D 82 00 19 FF FF FF
2.900000 1 CF00300x Rx d 8 FD 00 0A FF FF FF FF FF
2.900000 1 18FEF100x Rx d 8 F7 00 00 00 FF FF FF FF
2.950000 1 CF00300x Rx d 8 FD 00 0A FF FF FF FF FF
3.000000 1 CF00400x Rx d 8 FF 7D 82 00 19 FF FF FF
3.000000 1 CF00300x Rx d 8 FD 00 0A FF FF FF FF FF
3.000000 1 18FEF100x Rx d 8 F7 00 00 00 FF FF FF FF
3.050000 1 CF00300x Rx d 8 FD 1A 14 FF FF FF FF FF
3.100000 1 CF00400x Rx d 8 FF 7D 87 8E 19 FF FF FF
3.100000 1 CF00300x Rx d 8 FD 1B 15 FF FF FF FF FF
3.100000 1 18FEF100x Rx d 8 F7 E4 00 00 FF FF FF FF
3.150000 1 CF00300x Rx d 8 FD 1B 15 FF FF FF FF FF
3.200000 1 CF00400x Rx d 8 FF 7D 88 1C 1A FF FF FF
3.200000 1 CF00300x Rx d 8 FD 1C 15 FF FF FF FF FF
3.200000 1 18FEF100x Rx d 8 F7 C7 01 00 FF FF FF FF
3.250000 1 CF00300x Rx d 8 FD 1D 15 FF FF FF FF FF
3.300000 1 CF00400x Rx d 8 FF 7D 88 AB 1A FF FF FF
3.300000 1 CF00300x Rx d 8 FD 1E 16 FF FF FF FF FF
3.300000 1 18FEF100x Rx d 8 F7 AB 02 00 FF FF FF FF
3.350000 1 CF00300x Rx d 8 FD 1F 16 FF FF FF FF FF
3.400000 1 CF00400x Rx d 8 FF 7D 89 39 1B FF FF FF
3.400000 1 CF00300x Rx d 8 FD 20 16 FF FF FF FF FF
3.400000 1 18FEF100x Rx d 8 F7 8E 03 00 FF FF FF FF
3.450000 1 CF00300x Rx d 8 FD 20 16 FF FF FF FF FF
3.500000 1 CF00400x Rx d 8 FF 7D 89 C7 1B FF FF FF
3.500000 1 CF00300x Rx d 8 FD 21 17 FF FF FF FF FF
3.500000 1 18FEF100x Rx d 8 F7 72 04 00 FF FF FF FF
3.550000 1 CF00300x Rx d 8 FD 22 17 FF FF FF FF FF
3.600000 1 CF00400x Rx d 8 FF 7D 8A 55 1C FF FF FF
3.600000 1 CF00300x Rx d 8 FD 23 17 FF FF FF FF FF
3.600000 1 18FEF100x Rx d 8 F7 55 05 00 FF FF FF FF
3.650000 1 CF00300x Rx d 8 FD 24 18 FF FF FF FF FF
3.700000 1 CF00400x Rx d 8 FF 7D 8A E4 1C FF FF FF
3.700000 1 CF00300x Rx d 8 FD 25 18 FF FF FF FF FF
3.700000 1 18FEF100x Rx d 8 F7 39 06 00 FF FF FF FF
3.750000 1 CF00300x Rx d 8 FD 25 18 FF FF FF FF FF
3.800000 1 CF00400x Rx d 8 FF 7D 8B 72 1D FF FF FF
3.800000 1 CF00300x Rx d 8 FD 26 18 FF FF FF FF FF
3.800000 1 18FEF100x Rx d 8 F7 1C 07 00 FF FF FF FF
3.850000 1 CF00300x Rx d 8 FD 27 19 FF FF FF FF FF
3.900000 1 CF00400x Rx d 8 FF 7D 8B 00 1E FF FF FF
3.900000 1 CF00300x Rx d 8 FD 28 19 FF FF FF FF FF
3.900000 1 18FEF100x Rx d 8 F7 00 08 00 FF FF FF FF
3.950000 1 CF00300x Rx d 8 FD 29 19 FF FF FF FF FF
4.000000 1 CF00400x Rx d 8 FF 7D 8B 8E 1E FF FF FF
4.000000 1 CF00300x Rx d 8 FD 2A 1A FF FF FF FF FF
4.000000 1 18FEF100x Rx d 8 F7 E4 08 00 FF FF FF FF
4.050000 1 CF00300x Rx d 8 FD 2A 1A FF FF FF FF FF
4.100000 1 CF00400x Rx d 8 FF 7D 8C 1C 1F FF FF FF
4.100000 1 CF00300x Rx d 8 FD 2B 1A FF FF FF FF FF
4.100000 1 18FEF100x Rx d 8 F7 C7 09 00 FF FF FF FF
4.150000 1 CF00300x Rx d 8 FD 2C 1A FF FF FF FF FF
4.200000 1 CF00400x Rx d 8 FF 7D 8C AB 1F FF FF FF
4.200000 1 CF00300x Rx d 8 FD 2D 1B FF FF FF FF FF
4.200000 1 18FEF100x Rx d 8 F7 AB 0A 00 FF FF FF FF
4.250000 1 CF00300x Rx d 8 FD 2E 1B FF FF FF FF FF
4.300000 1 CF00400x Rx d 8 FF 7D 8D 39 20 FF FF FF
4.300000 1 CF00300x Rx d 8 FD 2F 1B FF FF FF FF FF
4.300000 1 18FEF100x Rx d 8 F7 8E 0B 00 FF FF FF FF
4.350000 1 CF00300x Rx d 8 FD 2F 1B FF FF FF FF FF
4.400000 1 CF00400x Rx d 8 FF 7D 8D C7 20 FF FF FF
4.400000 1 CF00300x Rx d 8 FD 30 1C FF FF FF FF FF
4.400000 1 18FEF100x Rx d 8 F7 72 0C 00 FF FF FF FF
4.450000 1 CF00300x Rx d 8 FD 31 1C FF FF FF FF FF
4.500000 1 CF00400x Rx d 8 FF 7D 8E 55 21 FF FF FF
4.500000 1 CF00300x Rx d 8 FD 32 1C FF FF FF FF FF
4.500000 1 18FEF100x Rx d 8 F7 55 0D 00 FF FF FF FF
4.550000 1 CF00300x Rx d 8 FD 33 1D FF FF FF FF FF
4.600000 1 CF00400x Rx d 8 FF 7D 8E E4 21 FF FF FF
4.600000 1 CF00300x Rx d 8 FD 34 1D FF FF FF FF FF
4.600000 1 18FEF100x Rx d 8 F7 39 0E 00 FF FF FF FF
4.650000 1 CF00300x Rx d 8 FD 34 1D FF FF FF FF FF
4.700000 1 CF00400x Rx d 8 FF 7D 8F 72 22 FF FF FF
4.700000 1 CF00300x Rx d 8 FD 35 1D FF FF FF FF FF
4.700000 1 18FEF100x Rx d 8 F7 1C 0F 00 FF FF FF FF
4.750000 1 CF00300x Rx d 8 FD 36 1E FF FF FF FF FF
4.800000 1 CF00400x Rx d 8 FF 7D 8F 00 23 FF FF FF
4.800000 1 CF00300x Rx d 8 FD 37 1E FF FF FF FF FF
4.800000 1 18FEF100x Rx d 8 F7 00 10 00 FF FF FF FF
4.850000 1 CF00300x Rx d 8 FD 38 1E FF FF FF FF FF
4.900000 1 CF00400x Rx d 8 FF 7D 8F 8E 23 FF FF FF
4.900000 1 CF00300x Rx d 8 FD 39 1F FF FF FF FF FF
4.900000 1 18FEF100x Rx d 8 F7 E4 10 00 FF FF FF FF
4.950000 1 CF00300x Rx d 8 FD 39 1F FF FF FF FF FF
5.000000 1 CF00400x Rx d 8 FF 7D 90 1C 24 FF FF FF
5.000000 1 CF00300x Rx d 8 FD 3A 1F FF FF FF FF FF
5.000000 1 18FEF100x Rx d 8 F7 C7 11 00 FF FF FF FF
5.050000 1 CF00300x Rx d 8 FD 3B 1F FF FF FF FF FF
5.100000 1 CF00400x Rx d 8 FF 7D 90 AB 24 FF FF FF
5.100000 1 CF00300x Rx d 8 FD 3C 20 FF FF FF FF FF
5.100000 1 18FEF100x Rx d 8 F7 AB 12 00 FF FF FF FF
5.150000 1 CF00300x Rx d 8 FD 3D 20 FF FF FF FF FF
5.200000 1 CF00400x Rx d 8 FF 7D 91 39 25 FF FF FF
5.200000 1 CF00300x Rx d 8 FD 3E 20 FF FF FF FF FF
5.200000 1 18FEF100x Rx d 8 F7 8E 13 00 FF FF FF FF
5.250000 1 CF00300x Rx d 8 FD 3E 20 FF FF FF FF FF
5.300000 1 CF00400x Rx d 8 FF 7D 91 C7 25 FF FF FF
5.300000 1 CF00300x Rx d 8 FD 3F 21 FF FF FF FF FF
5.300000 1 18FEF100x Rx d 8 F7 72 14 00 FF FF FF FF
5.350000 1 CF00300x Rx d 8 FD 40 21 FF FF FF FF FF
5.400000 1 CF00400x Rx d 8 FF 7D 92 55 26 FF FF FF
5.400000 1 CF00300x Rx d 8 FD 41 21 FF FF FF FF FF
5.400000 1 18FEF100x Rx d 8 F7 55 15 00 FF FF FF FF
5.450000 1 CF00300x Rx d 8 FD 42 22 FF FF FF FF FF
5.500000 1 CF00400x Rx d 8 FF 7D 92 E4 26 FF FF FF
5.500000 1 CF00300x Rx d 8 FD 43 22 FF FF FF FF FF
5.500000 1 18FEF100x Rx d 8 F7 39 16 00 FF FF FF FF
5.550000 1 CF00300x Rx d 8 FD 43 22 FF FF FF FF FF
5.600000 1 CF00400x Rx d 8 FF 7D 93 72 27 FF FF FF
5.600000 1 CF00300x Rx d 8 FD 44 22 FF FF FF FF FF
5.600000 1 18FEF100x Rx d 8 F7 1C 17 00 FF FF FF FF
5.650000 1 CF00300x Rx d 8 FD 45 23 FF FF FF FF FF
5.700000 1 CF00400x Rx d 8 FF 7D 93 00 28 FF FF FF
5.700000 1 CF00300x Rx d 8 FD 46 23 FF FF FF FF FF
5.700000 1 18FEF100x Rx d 8 F7 00 18 00 FF FF FF FF
5.750000 1 CF00300x Rx d 8 FD 47 23 FF FF FF FF FF
5.800000 1 CF00400x Rx d 8 FF 7D 93 8E 28 FF FF FF
5.800000 1 CF00300x Rx d 8 FD 48 24 FF FF FF FF FF
5.800000 1 18FEF100x Rx d 8 F7 E4 18 00 FF FF FF FF
5.850000 1 CF00300x Rx d 8 FD 48 24 FF FF FF FF FF
5.900000 1 CF00400x Rx d 8 FF 7D 94 1C 29 FF FF FF
5.900000 1 CF00300x Rx d 8 FD 49 24 FF FF FF FF FF
5.900000 1 18FEF100x Rx d 8 F7 C7 19 00 FF FF FF FF
5.950000 1 CF00300x Rx d 8 FD 4A 24 FF FF FF FF FF
6.000000 1 CF00400x Rx d 8 FF 7D 94 AB 29 FF FF FF
6.000000 1 CF00300x Rx d 8 FD 4B 25 FF FF FF FF FF
6.000000 1 18FEF100x Rx d 8 F7 AB 1A 00 FF FF FF FF
6.050000 1 CF00300x Rx d 8 FD 4C 25 FF FF FF FF FF
6.100000 1 CF00400x Rx d 8 FF 7D 95 39 2A FF FF FF
6.100000 1 CF00300x Rx d 8 FD 4D 25 FF FF FF FF FF
6.100000 1 18FEF100x Rx d 8 F7 8E 1B 00 FF FF FF FF
6.150000 1 CF00300x Rx d 8 FD 4D 25 FF FF FF FF FF
6.200000 1 CF00400x Rx d 8 FF 7D 95 C7 2A FF FF FF
6.200000 1 CF00300x Rx d 8 FD 4E 26 FF FF FF FF FF
6.200000 1 18FEF100x Rx d 8 F7 72 1C 00 FF FF FF FF
6.250000 1 CF00300x Rx d 8 FD 4F 26 FF FF FF FF FF
6.300000 1 CF00400x Rx d 8 FF 7D 96 55 2B FF FF FF
6.300000 1 CF00300x Rx d 8 FD 50 26 FF FF FF FF FF
6.300000 1 18FEF100x Rx d 8 F7 55 1D 00 FF FF FF FF
6.350000 1 CF00300x Rx d 8 FD 51 27 FF FF FF FF FF
6.400000 1 CF00400x Rx d 8 FF 7D 96 E4 2B FF FF FF
6.400000 1 CF00300x Rx d 8 FD 52 27 FF FF FF FF FF
6.400000 1 18FEF100x Rx d 8 F7 39 1E 00 FF FF FF FF
6.450000 1 CF00300x Rx d 8 FD 52 27 FF FF FF FF FF
6.500000 1 CF00400x Rx d 8 FF 7D 97 72 2C FF FF FF
6.500000 1 CF00300x Rx d 8 FD 53 27 FF FF FF FF FF
6.500000 1 18FEF100x Rx d 8 F7 1C 1F 00 FF FF FF FF
6.550000 1 CF00300x Rx d 8 FD 54 28 FF FF FF FF FF
6.600000 1 CF00400x Rx d 8 FF 7D 97 00 2D FF FF FF
6.600000 1 CF00300x Rx d 8 FD 55 28 FF FF FF FF FF
6.600000 1 18FEF100x Rx d 8 F7 00 20 00 FF FF FF FF
6.650000 1 CF00300x Rx d 8 FD 56 28 FF FF FF FF FF
6.700000 1 CF00400x Rx d 8 FF 7D 97 8E 2D FF FF FF
6.700000 1 CF00300x Rx d 8 FD 57 29 FF FF FF FF FF
6.700000 1 18FEF100x Rx d 8 F7 E4 20 00 FF FF FF FF
6.750000 1 CF00300x Rx d 8 FD 57 29 FF FF FF FF FF
6.800000 1 CF00400x Rx d 8 FF 7D 98 1C 2E FF FF FF
6.800000 1 CF00300x Rx d 8 FD 58 29 FF FF FF FF FF
6.800000 1 18FEF100x Rx d 8 F7 C7 21 00 FF FF FF FF
6.850000 1 CF00300x Rx d 8 FD 59 29 FF FF FF FF FF
6.900000 1 CF00400x Rx d 8 FF 7D 98 AB 2E FF FF FF
6.900000 1 CF00300x Rx d 8 FD 5A 2A FF FF FF FF FF
6.900000 1 18FEF100x Rx d 8 F7 AB 22 00 FF FF FF FF
6.950000 1 CF00300x Rx d 8 FD 5B 2A FF FF FF FF FF
7.000000 1 CF00400x Rx d 8 FF 7D 99 39 2F FF FF FF
7.000000 1 CF00300x Rx d 8 FD 5C 2A FF FF FF FF FF
7.000000 1 18FEF100x Rx d 8 F7 8E 23 00 FF FF FF FF
7.050000 1 CF00300x Rx d 8 FD 5C 2A FF FF FF FF FF
7.100000 1 CF00400x Rx d 8 FF 7D 99 C7 2F FF FF FF
7.100000 1 CF00300x Rx d 8 FD 5D 2B FF FF FF FF FF
7.100000 1 18FEF100x Rx d 8 F7 72 24 00 FF FF FF FF
7.150000 1 CF00300x Rx d 8 FD 5E 2B FF FF FF FF FF
7.200000 1 CF00400x Rx d 8 FF 7D 9A 55 30 FF FF FF
7.200000 1 CF00300x Rx d 8 FD 5F 2B FF FF FF FF FF
7.200000 1 18FEF100x Rx d 8 F7 55 25 00 FF FF FF FF
7.250000 1 CF00300x Rx d 8 FD 60 2C FF FF FF FF FF
7.300000 1 CF00400x Rx d 8 FF 7D 9A E4 30 FF FF FF
7.300000 1 CF00300x Rx d 8 FD 61 2C FF FF FF FF FF
7.300000 1 18FEF100x Rx d 8 F7 39 26 00 FF FF FF FF
7.350000 1 CF00300x Rx d 8 FD 61 2C FF FF FF FF FF
7.400000 1 CF00400x Rx d 8 FF 7D 9B 72 31 FF FF FF
7.400000 1 CF00300x Rx d 8 FD 62 2C FF FF FF FF FF
7.400000 1 18FEF100x Rx d 8 F7 1C 27 00 FF FF FF FF
7.450000 1 CF00300x Rx d 8 FD 63 2D FF FF FF FF FF
7.500000 1 CF00400x Rx d 8 FF 7D 9B 00 32 FF FF FF
7.500000 1 CF00300x Rx d 8 FD 64 2D FF FF FF FF FF
7.500000 1 18FEF100x Rx d 8 F7 00 28 00 FF FF FF FF
7.550000 1 CF00300x Rx d 8 FD 65 2D FF FF FF FF FF
7.600000 1 CF00400x Rx d 8 FF 7D 9B 8E 32 FF FF FF
7.600000 1 CF00300x Rx d 8 FD 66 2E FF FF FF FF FF
7.600000 1 18FEF100x Rx d 8 F7 E4 28 00 FF FF FF FF
7.650000 1 CF00300x Rx d 8 FD 66 2E FF FF FF FF FF
7.700000 1 CF00400x Rx d 8 FF 7D 9C 1C 33 FF FF FF
7.700000 1 CF00300x Rx d 8 FD 67 2E FF FF FF FF FF
7.700000 1 18FEF100x Rx d 8 F7 C7 29 00 FF FF FF FF
7.750000 1 CF00300x Rx d 8 FD 68 2E FF FF FF FF FF
7.800000 1 CF00400x Rx d 8 FF 7D 9C AB 33 FF FF FF
7.800000 1 CF00300x Rx d 8 FD 69 2F FF FF FF FF FF
7.800000 1 18FEF100x Rx d 8 F7 AB 2A 00 FF FF FF FF
7.850000 1 CF00300x Rx d 8 FD 6A 2F FF FF FF FF FF
7.900000 1 CF00400x Rx d 8 FF 7D 9D 39 34 FF FF FF
7.900000 1 CF00300x Rx d 8 FD 6B 2F FF FF FF FF FF
7.900000 1 18FEF100x Rx d 8 F7 8E 2B 00 FF FF FF FF
7.950000 1 CF00300x Rx d 8 FD 6B 2F FF FF FF FF FF
8.000000 1 CF00400x Rx d 8 FF 7D 9D C7 34 FF FF FF
8.000000 1 CF00300x Rx d 8 FD 6C 30 FF FF FF FF FF
8.000000 1 18FEF100x Rx d 8 F7 72 2C 00 FF FF FF FF
8.050000 1 CF00300x Rx d 8 FD 6D 30 FF FF FF FF FF
8.100000 1 CF00400x Rx d 8 FF 7D 9E 55 35 FF FF FF
8.100000 1 CF00300x Rx d 8 FD 6E 30 FF FF FF FF FF
8.100000 1 18FEF100x Rx d 8 F7 55 2D 00 FF FF FF FF
8.150000 1 CF00300x Rx d 8 FD 6F 31 FF FF FF FF FF
8.200000 1 CF00400x Rx d 8 FF 7D 9E E4 35 FF FF FF
8.200000 1 CF00300x Rx d 8 FD 70 31 FF FF FF FF FF
8.200000 1 18FEF100x Rx d 8 F7 39 2E 00 FF FF FF FF
8.250000 1 CF00300x Rx d 8 FD 70 31 FF FF FF FF FF
8.300000 1 CF00400x Rx d 8 FF 7D 9F 72 36 FF FF FF
8.300000 1 CF00300x Rx d 8 FD 71 31 FF FF FF FF FF
8.300000 1 18FEF100x Rx d 8 F7 1C 2F 00 FF FF FF FF
8.350000 1 CF00300x Rx d 8 FD 72 32 FF FF FF FF FF
8.400000 1 CF00400x Rx d 8 FF 7D 9F 00 37 FF FF FF
8.400000 1 CF00300x Rx d 8 FD 73 32 FF FF FF FF FF
8.400000 1 18FEF100x Rx d 8 F7 00 30 00 FF FF FF FF
8.450000 1 CF00300x Rx d 8 FD 74 32 FF FF FF FF FF
8.500000 1 CF00400x Rx d 8 FF 7D 9F 8E 37 FF FF FF
8.500000 1 CF00300x Rx d 8 FD 75 33 FF FF FF FF FF
8.500000 1 18FEF100x Rx d 8 F7 E4 30 00 FF FF FF FF
8.550000 1 CF00300x Rx d 8 FD 75 33 FF FF FF FF FF
8.600000 1 CF00400x Rx d 8 FF 7D A0 1C 38 FF FF FF
8.600000 1 CF00300x Rx d 8 FD 76 33 FF FF FF FF FF
8.600000 1 18FEF100x Rx d 8 F7 C7 31 00 FF FF FF FF
8.650000 1 CF00300x Rx d 8 FD 77 33 FF FF FF FF FF
8.700000 1 CF00400x Rx d 8 FF 7D A0 AB 38 FF FF FF
8.700000 1 CF00300x Rx d 8 FD 78 34 FF FF FF FF FF
8.700000 1 18FEF100x Rx d 8 F7 AB 32 00 FF FF FF FF
8.750000 1 CF00300x Rx d 8 FD 79 34 FF FF FF FF FF
8.800000 1 CF00400x Rx d 8 FF 7D A1 39 39 FF FF FF
8.800000 1 CF00300x Rx d 8 FD 7A 34 FF FF FF FF FF
8.800000 1 18FEF100x Rx d 8 F7 8E 33 00 FF FF FF FF
8.850000 1 CF00300x Rx d 8 FD 7A 34 FF FF FF FF FF
8.900000 1 CF00400x Rx d 8 FF 7D A1 C7 39 FF FF FF
8.900000 1 CF00300x Rx d 8 FD 7B 35 FF FF FF FF FF
8.900000 1 18FEF100x Rx d 8 F7 72 34 00 FF FF FF FF
8.950000 1 CF00300x Rx d 8 FD 7C 35 FF FF FF FF FF
9.000000 1 CF00400x Rx d 8 FF 7D A2 55 3A FF FF FF
9.000000 1 CF00300x Rx d 8 FD 7D 35 FF FF FF FF FF
9.000000 1 18FEF100x Rx d 8 F7 55 35 00 FF FF FF FF
9.050000 1 CF00300x Rx d 8 FD 7E 36 FF FF FF FF FF
9.100000 1 CF00400x Rx d 8 FF 7D A2 E4 3A FF FF FF
9.100000 1 CF00300x Rx d 8 FD 7F 36 FF FF FF FF FF
9.100000 1 18FEF100x Rx d 8 F7 39 36 00 FF FF FF FF
9.150000 1 CF00300x Rx d 8 FD 7F 36 FF FF FF FF FF
9.200000 1 CF00400x Rx d 8 FF 7D A3 72 3B FF FF FF
9.200000 1 CF00300x Rx d 8 FD 80 36 FF FF FF FF FF
9.200000 1 18FEF100x Rx d 8 F7 1C 37 00 FF FF FF FF
9.250000 1 CF00300x Rx d 8 FD 81 37 FF FF FF FF FF
9.300000 1 CF00400x Rx d 8 FF 7D A3 00 3C FF FF FF
9.300000 1 CF00300x Rx d 8 FD 82 37 FF FF FF FF FF
9.300000 1 18FEF100x Rx d 8 F7 00 38 00 FF FF FF FF
9.350000 1 CF00300x Rx d 8 FD 83 37 FF FF FF FF FF
9.400000 1 CF00400x Rx d 8 FF 7D A3 8E 3C FF FF FF
9.400000 1 CF00300x Rx d 8 FD 84 38 FF FF FF FF FF
9.400000 1 18FEF100x Rx d 8 F7 E4 38 00 FF FF FF FF
9.450000 1 CF00300x Rx d 8 FD 84 38 FF FF FF FF FF
9.500000 1 CF00400x Rx d 8 FF 7D A4 1C 3D FF FF FF
9.500000 1 CF00300x Rx d 8 FD 85 38 FF FF FF FF FF
9.500000 1 18FEF100x Rx d 8 F7 C7 39 00 FF FF FF FF
9.550000 1 CF00300x Rx d 8 FD 86 38 FF FF FF FF FF
9.600000 1 CF00400x Rx d 8 FF 7D A4 AB 3D FF FF FF
9.600000 1 CF00300x Rx d 8 FD 87 39 FF FF FF FF FF
9.600000 1 18FEF100x Rx d 8 F7 AB 3A 00 FF FF FF FF
9.650000 1 CF00300x Rx d 8 FD 88 39 FF FF FF FF FF
9.700000 1 CF00400x Rx d 8 FF 7D A5 39 3E FF FF FF
9.700000 1 CF00300x Rx d 8 FD 89 39 FF FF FF FF FF
9.700000 1 18FEF100x Rx d 8 F7 8E 3B 00 FF FF FF FF
9.750000 1 CF00300x Rx d 8 FD 89 39 FF FF FF FF FF
9.800000 1 CF00400x Rx d 8 FF 7D A5 C7 3E FF FF FF
9.800000 1 CF00300x Rx d 8 FD 8A 3A FF FF FF FF FF
9.800000 1 18FEF100x Rx d 8 F7 72 3C 00 FF FF FF FF
9.850000 1 CF00300x Rx d 8 FD 8B 3A FF FF FF FF FF
9.900000 1 CF00400x Rx d 8 FF 7D A6 55 3F FF FF FF
9.900000 1 CF00300x Rx d 8 FD 8C 3A FF FF FF FF FF
9.900000 1 18FEF100x Rx d 8 F7 55 3D 00 FF FF FF FF
9.950000 1 CF00300x Rx d 8 FD 8D 3B FF FF FF FF FF
10.000000 1 CF00400x Rx d 8 FF 7D A6 E4 3F FF FF FF
10.000000 1 CF00300x Rx d 8 FD 8E 3B FF FF FF FF FF
10.000000 1 18FEF100x Rx d 8 F7 39 3E 00 FF FF FF FF
10.050000 1 CF00300x Rx d 8 FD 8E 3B FF FF FF FF FF
10.100000 1 CF00400x Rx d 8 FF 7D A7 72 40 FF FF FF
10.100000 1 CF00300x Rx d 8 FD 8F 3B FF FF FF FF FF
10.100000 1 18FEF100x Rx d 8 F7 1C 3F 00 FF FF FF FF
10.150000 1 CF00300x Rx d 8 FD 90 3C FF FF FF FF FF
10.200000 1 CF00400x Rx d 8 FF 7D A7 00 41 FF FF FF
10.200000 1 CF00300x Rx d 8 FD 91 3C FF FF FF FF FF
10.200000 1 18FEF100x Rx d 8 F7 00 40 00 FF FF FF FF
10.250000 1 CF00300x Rx d 8 FD 92 3C FF FF FF FF FF
10.300000 1 CF00400x Rx d 8 FF 7D A7 8E 41 FF FF FF
10.300000 1 CF00300x Rx d 8 FD 93 3D FF FF FF FF FF
10.300000 1 18FEF100x Rx d 8 F7 E4 40 00 FF FF FF FF
10.350000 1 CF00300x Rx d 8 FD 93 3D FF FF FF FF FF
10.400000 1 CF00400x Rx d 8 FF 7D A8 1C 42 FF FF FF
10.400000 1 CF00300x Rx d 8 FD 94 3D FF FF FF FF FF
10.400000 1 18FEF100x Rx d 8 F7 C7 41 00 FF FF FF FF
10.450000 1 CF00300x Rx d 8 FD 95 3D FF FF FF FF FF
10.500000 1 CF00400x Rx d 8 FF 7D A8 AB 42 FF FF FF
10.500000 1 CF00300x Rx d 8 FD 96 3E FF FF FF FF FF
10.500000 1 18FEF100x Rx d 8 F7 AB 42 00 FF FF FF FF
10.550000 1 CF00300x Rx d 8 FD 97 3E FF FF FF FF FF
10.600000 1 CF00400x Rx d 8 FF 7D A9 39 43 FF FF FF
10.600000 1 CF00300x Rx d 8 FD 98 3E FF FF FF FF FF
10.600000 1 18FEF100x Rx d 8 F7 8E 43 00 FF FF FF FF
10.650000 1 CF00300x Rx d 8 FD 98 3E FF FF FF FF FF
10.700000 1 CF00400x Rx d 8 FF 7D A9 C7 43 FF FF FF
10.700000 1 CF00300x Rx d 8 FD 99 3F FF FF FF FF FF
10.700000 1 18FEF100x Rx d 8 F7 72 44 00 FF FF FF FF
10.750000 1 CF00300x Rx d 8 FD 9A 3F FF FF FF FF FF
10.800000 1 CF00400x Rx d 8 FF 7D AA 55 44 FF FF FF
10.800000 1 CF00300x Rx d 8 FD 9B 3F FF FF FF FF FF
10.800000 1 18FEF100x Rx d 8 F7 55 45 00 FF FF FF FF
10.850000 1 CF00300x Rx d 8 FD 9C 40 FF FF FF FF FF
10.900000 1 CF00400x Rx d 8 FF 7D AA E4 44 FF FF FF
10.900000 1 CF00300x Rx d 8 FD 9D 40 FF FF FF FF FF
10.900000 1 18FEF100x Rx d 8 F7 39 46 00 FF FF FF FF
10.950000 1 CF00300x Rx d 8 FD 9D 40 FF FF FF FF FF
11.000000 1 CF00400x Rx d 8 FF 7D AB 72 45 FF FF FF
11.000000 1 CF00300x Rx d 8 FD 9E 40 FF FF FF FF FF
11.000000 1 18FEF100x Rx d 8 F7 1C 47 00 FF FF FF FF
11.050000 1 CF00300x Rx d 8 FD 9F 41 FF FF FF FF FF
11.100000 1 CF00400x Rx d 8 FF 7D AB 00 46 FF FF FF
11.100000 1 CF00300x Rx d 8 FD A0 41 FF FF FF FF FF
11.100000 1 18FEF100x Rx d 8 F7 00 48 00 FF FF FF FF
11.150000 1 CF00300x Rx d 8 FD A1 41 FF FF FF FF FF
11.200000 1 CF00400x Rx d 8 FF 7D AB 8E 46 FF FF FF
11.200000 1 CF00300x Rx d 8 FD A2 42 FF FF FF FF FF
11.200000 1 18FEF100x Rx d 8 F7 E4 48 00 FF FF FF FF
11.250000 1 CF00300x Rx d 8 FD A2 42 FF FF FF FF FF
11.300000 1 CF00400x Rx d 8 FF 7D AC 1C 47 FF FF FF
11.300000 1 CF00300x Rx d 8 FD A3 42 FF FF FF FF FF
11.300000 1 18FEF100x Rx d 8 F7 C7 49 00 FF FF FF FF
11.350000 1 CF00300x Rx d 8 FD A4 42 FF FF FF FF FF
11.400000 1 CF00400x Rx d 8 FF 7D AC AB 47 FF FF FF
11.400000 1 CF00300x Rx d 8 FD A5 43 FF FF FF FF FF
11.400000 1 18FEF100x Rx d 8 F7 AB 4A 00 FF FF FF FF
11.450000 1 CF00300x Rx d 8 FD A6 43 FF FF FF FF FF
11.500000 1 CF00400x Rx d 8 FF 7D AD 39 48 FF FF FF
11.500000 1 CF00300x Rx d 8 FD A7 43 FF FF FF FF FF
11.500000 1 18FEF100x Rx d 8 F7 8E 4B 00 FF FF FF FF
11.550000 1 CF00300x Rx d 8 FD A7 43 FF FF FF FF FF
11.600000 1 CF00400x Rx d 8 FF 7D AD C7 48 FF FF FF
11.600000 1 CF00300x Rx d 8 FD A8 44 FF FF FF FF FF
11.600000 1 18FEF100x Rx d 8 F7 72 4C 00 FF FF FF FF
11.650000 1 CF00300x Rx d 8 FD A9 44 FF FF FF FF FF
11.700000 1 CF00400x Rx d 8 FF 7D AE 55 49 FF FF FF
11.700000 1 CF00300x Rx d 8 FD AA 44 FF FF FF FF FF
11.700000 1 18FEF100x Rx d 8 F7 55 4D 00 FF FF FF FF
11.750000 1 CF00300x Rx d 8 FD AB 45 FF FF FF FF FF
11.800000 1 CF00400x Rx d 8 FF 7D AE E4 49 FF FF FF
11.800000 1 CF00300x Rx d 8 FD AC 45 FF FF FF FF FF
11.800000 1 18FEF100x Rx d 8 F7 39 4E 00 FF FF FF FF
11.850000 1 CF00300x Rx d 8 FD AC 45 FF FF FF FF FF
11.900000 1 CF00400x Rx d 8 FF 7D AF 72 4A FF FF FF
11.900000 1 CF00300x Rx d 8 FD AD 45 FF FF FF FF FF
11.900000 1 18FEF100x Rx d 8 F7 1C 4F 00 FF FF FF FF
11.950000 1 CF00300x Rx d 8 FD AE 46 FF FF FF FF FF
12.000000 1 CF00400x Rx d 8 FF 7D AF 00 4B FF FF FF
12.000000 1 CF00300x Rx d 8 FD AF 46 FF FF FF FF FF
12.000000 1 18FEF100x Rx d 8 F7 00 50 00 FF FF FF FF
12.050000 1 CF00300x Rx d 8 FD 62 35 FF FF FF FF FF
12.100000 1 CF00400x Rx d 8 FF 7D 9B 98 49 FF FF FF
12.100000 1 CF00300x Rx d 8 FD 62 35 FF FF FF FF FF
12.100000 1 18FEF100x Rx d 8 F7 A7 4D 40 FF FF FF FF
12.150000 1 CF00300x Rx d 8 FD 61 35 FF FF FF FF FF
12.200000 1 CF00400x Rx d 8 FF 7D 9B E1 49 FF FF FF
12.200000 1 CF00300x Rx d 8 FD 61 36 FF FF FF FF FF
12.200000 1 18FEF100x Rx d 8 F7 86 4D 40 FF FF FF FF
12.250000 1 CF00300x Rx d 8 FD 61 36 FF FF FF FF FF
12.300000 1 CF00400x Rx d 8 FF 7D 9B 2D 4A FF FF FF
12.300000 1 CF00300x Rx d 8 FD 61 36 FF FF FF FF FF
12.300000 1 18FEF100x Rx d 8 F7 65 4D 40 FF FF FF FF
12.350000 1 CF00300x Rx d 8 FD 60 36 FF FF FF FF FF
12.400000 1 CF00400x Rx d 8 FF 7D 9B 7C 4A FF FF FF
12.400000 1 CF00300x Rx d 8 FD 60 36 FF FF FF FF FF
12.400000 1 18FEF100x Rx d 8 F7 44 4D 40 FF FF FF FF
12.450000 1 CF00300x Rx d 8 FD 60 37 FF FF FF FF FF
12.500000 1 CF00400x Rx d 8 FF 7D 9B CB 4A FF FF FF
12.500000 1 CF00300x Rx d 8 FD 5F 37 FF FF FF FF FF
12.500000 1 18FEF100x Rx d 8 F7 24 4D 40 FF FF FF FF
12.550000 1 CF00300x Rx d 8 FD 5F 37 FF FF FF FF FF
12.600000 1 CF00400x Rx d 8 FF 7D 9B 1B 4B FF FF FF
12.600000 1 CF00300x Rx d 8 FD 5F 37 FF FF FF FF FF
12.600000 1 18FEF100x Rx d 8 F7 05 4D 40 FF FF FF FF
12.650000 1 CF00300x Rx d 8 FD 5E 37 FF FF FF FF FF
12.700000 1 CF00400x Rx d 8 FF 7D 9B 6B 4B FF FF FF
12.700000 1 CF00300x Rx d 8 FD 5E 38 FF FF FF FF FF
12.700000 1 18FEF100x Rx d 8 F7 E7 4C 40 FF FF FF FF
12.750000 1 CF00300x Rx d 8 FD 5D 38 FF FF FF FF FF
12.800000 1 CF00400x Rx d 8 FF 7D 9B B9 4B FF FF FF
12.800000 1 CF00300x Rx d 8 FD 5D 38 FF FF FF FF FF
12.800000 1 18FEF100x Rx d 8 F7 C9 4C 40 FF FF FF FF
12.850000 1 CF00300x Rx d 8 FD 5D 38 FF FF FF FF FF
12.900000 1 CF00400x Rx d 8 FF 7D 9B 06 4C FF FF FF
12.900000 1 CF00300x Rx d 8 FD 5C 38 FF FF FF FF FF
12.900000 1 18FEF100x Rx d 8 F7 AC 4C 40 FF FF FF FF
12.950000 1 CF00300x Rx d 8 FD 5C 39 FF FF FF FF FF
13.000000 1 CF00400x Rx d 8 FF 7D 9B 50 4C FF FF FF
13.000000 1 CF00300x Rx d 8 FD 5B 39 FF FF FF FF FF
13.000000 1 18FEF100x Rx d 8 F7 90 4C 40 FF FF FF FF
13.050000 1 CF00300x Rx d 8 FD 5B 39 FF FF FF FF FF
13.100000 1 CF00400x Rx d 8 FF 7D 9B 97 4C FF FF FF
13.100000 1 CF00300x Rx d 8 FD 5B 39 FF FF FF FF FF
13.100000 1 18FEF100x Rx d 8 F7 74 4C 40 FF FF FF FF
13.150000 1 CF00300x Rx d 8 FD 5A 39 FF FF FF FF FF
13.200000 1 CF00400x Rx d 8 FF 7D 9B DA 4C FF FF FF
13.200000 1 CF00300x Rx d 8 FD 5A 39 FF FF FF FF FF
13.200000 1 18FEF100x Rx d 8 F7 5A 4C 40 FF FF FF FF
13.250000 1 CF00300x Rx d 8 FD 59 3A FF FF FF FF FF
13.300000 1 CF00400x Rx d 8 FF 7D 9B 18 4D FF FF FF
13.300000 1 CF00300x Rx d 8 FD 59 3A FF FF FF FF FF
13.300000 1 18FEF100x Rx d 8 F7 40 4C 40 FF FF FF FF
13.350000 1 CF00300x Rx d 8 FD 58 3A FF FF FF FF FF
13.400000 1 CF00400x Rx d 8 FF 7D 9B 50 4D FF FF FF
13.400000 1 CF00300x Rx d 8 FD 58 3A FF FF FF FF FF
13.400000 1 18FEF100x Rx d 8 F7 27 4C 40 FF FF FF FF
13.450000 1 CF00300x Rx d 8 FD 58 3A FF FF FF FF FF
13.500000 1 CF00400x Rx d 8 FF 7D 9B 83 4D FF FF FF
13.500000 1 CF00300x Rx d 8 FD 57 3B FF FF FF FF FF
13.500000 1 18FEF100x Rx d 8 F7 0F 4C 40 FF FF FF FF
13.550000 1 CF00300x Rx d 8 FD 57 3B FF FF FF FF FF
13.600000 1 CF00400x Rx d 8 FF 7D 9B AF 4D FF FF FF
13.600000 1 CF00300x Rx d 8 FD 56 3B FF FF FF FF FF
13.600000 1 18FEF100x Rx d 8 F7 F8 4B 40 FF FF FF FF
13.650000 1 CF00300x Rx d 8 FD 56 3B FF FF FF FF FF
13.700000 1 CF00400x Rx d 8 FF 7D 9B D5 4D FF FF FF
13.700000 1 CF00300x Rx d 8 FD 55 3B FF FF FF FF FF
13.700000 1 18FEF100x Rx d 8 F7 E1 4B 40 FF FF FF FF
13.750000 1 CF00300x Rx d 8 FD 55 3B FF FF FF FF FF
13.800000 1 CF00400x Rx d 8 FF 7D 9B F3 4D FF FF FF
13.800000 1 CF00300x Rx d 8 FD 55 3C FF FF FF FF FF
13.800000 1 18FEF100x Rx d 8 F7 CC 4B 40 FF FF FF FF
13.850000 1 CF00300x Rx d 8 FD 54 3C FF FF FF FF FF
13.900000 1 CF00400x Rx d 8 FF 7D 9B 0A 4E FF FF FF
13.900000 1 CF00300x Rx d 8 FD 54 3C FF FF FF FF FF
13.900000 1 18FEF100x Rx d 8 F7 B8 4B 40 FF FF FF FF
13.950000 1 CF00300x Rx d 8 FD 53 3C FF FF FF FF FF
14.000000 1 CF00400x Rx d 8 FF 7D 9B 18 4E FF FF FF
14.000000 1 CF00300x Rx d 8 FD 53 3C FF FF FF FF FF
14.000000 1 18FEF100x Rx d 8 F7 A4 4B 40 FF FF FF FF
14.050000 1 CF00300x Rx d 8 FD 53 3C FF FF FF FF FF
14.100000 1 CF00400x Rx d 8 FF 7D 9B 1F 4E FF FF FF
14.100000 1 CF00300x Rx d 8 FD 52 3D FF FF FF FF FF
14.100000 1 18FEF100x Rx d 8 F7 92 4B 40 FF FF FF FF
14.150000 1 CF00300x Rx d 8 FD 52 3D FF FF FF FF FF
14.200000 1 CF00400x Rx d 8 FF 7D 9B 1E 4E FF FF FF
14.200000 1 CF00300x Rx d 8 FD 51 3D FF FF FF FF FF
14.200000 1 18FEF100x Rx d 8 F7 81 4B 40 FF FF FF FF
14.250000 1 CF00300x Rx d 8 FD 51 3D FF FF FF FF FF
14.300000 1 CF00400x Rx d 8 FF 7D 9B 15 4E FF FF FF
14.300000 1 CF00300x Rx d 8 FD 51 3D FF FF FF FF FF
14.300000 1 18FEF100x Rx d 8 F7 70 4B 40 FF FF FF FF
14.350000 1 CF00300x Rx d 8 FD 50 3D FF FF FF FF FF
14.400000 1 CF00400x Rx d 8 FF 7D 9B 05 4E FF FF FF
14.400000 1 CF00300x Rx d 8 FD 50 3D FF FF FF FF FF
14.400000 1 18FEF100x Rx d 8 F7 61 4B 40 FF FF FF FF
14.450000 1 CF00300x Rx d 8 FD 50 3D FF FF FF FF FF
14.500000 1 CF00400x Rx d 8 FF 7D 9B EC 4D FF FF FF
14.500000 1 CF00300x Rx d 8 FD 4F 3E FF FF FF FF FF
14.500000 1 18FEF100x Rx d 8 F7 53 4B 40 FF FF FF FF
14.550000 1 CF00300x Rx d 8 FD 4F 3E FF FF FF FF FF
14.600000 1 CF00400x Rx d 8 FF 7D 9B CC 4D FF FF FF
14.600000 1 CF00300x Rx d 8 FD 4F 3E FF FF FF FF FF
14.600000 1 18FEF100x Rx d 8 F7 46 4B 40 FF FF FF FF
14.650000 1 CF00300x Rx d 8 FD 4E 3E FF FF FF FF FF
14.700000 1 CF00400x Rx d 8 FF 7D 9B A5 4D FF FF FF
14.700000 1 CF00300x Rx d 8 FD 4E 3E FF FF FF FF FF
14.700000 1 18FEF100x Rx d 8 F7 3A 4B 40 FF FF FF FF
14.750000 1 CF00300x Rx d 8 FD 4E 3E FF FF FF FF FF
14.800000 1 CF00400x Rx d 8 FF 7D 9B 77 4D FF FF FF
14.800000 1 CF00300x Rx d 8 FD 4D 3E FF FF FF FF FF
14.800000 1 18FEF100x Rx d 8 F7 2F 4B 40 FF FF FF FF
14.850000 1 CF00300x Rx d 8 FD 4D 3E FF FF FF FF FF
14.900000 1 CF00400x Rx d 8 FF 7D 9B 42 4D FF FF FF
14.900000 1 CF00300x Rx d 8 FD 4D 3E FF FF FF FF FF
14.900000 1 18FEF100x Rx d 8 F7 25 4B 40 FF FF FF FF
14.950000 1 CF00300x Rx d 8 FD 4D 3E FF FF FF FF FF
15.000000 1 CF00400x Rx d 8 FF 7D 9B 08 4D FF FF FF
15.000000 1 CF00300x Rx d 8 FD 4D 3F FF FF FF FF FF
15.000000 1 18FEF100x Rx d 8 F7 1D 4B 40 FF FF FF FF
15.050000 1 CF00300x Rx d 8 FD 4C 3F FF FF FF FF FF
15.100000 1 CF00400x Rx d 8 FF 7D 9B C9 4C FF FF FF
15.100000 1 CF00300x Rx d 8 FD 4C 3F FF FF FF FF FF
15.100000 1 18FEF100x Rx d 8 F7 15 4B 40 FF FF FF FF
15.150000 1 CF00300x Rx d 8 FD 4C 3F FF FF FF FF FF
15.200000 1 CF00400x Rx d 8 FF 7D 9B 85 4C FF FF FF
15.200000 1 CF00300x Rx d 8 FD 4C 3F FF FF FF FF FF
15.200000 1 18FEF100x Rx d 8 F7 0F 4B 40 FF FF FF FF
15.250000 1 CF00300x Rx d 8 FD 4C 3F FF FF FF FF FF
15.300000 1 CF00400x Rx d 8 FF 7D 9B 3D 4C FF FF FF
15.300000 1 CF00300x Rx d 8 FD 4C 3F FF FF FF FF FF
15.300000 1 18FEF100x Rx d 8 F7 0A 4B 40 FF FF FF FF
15.350000 1 CF00300x Rx d 8 FD 4B 3F FF FF FF FF FF
15.400000 1 CF00400x Rx d 8 FF 7D 9B F2 4B FF FF FF
15.400000 1 CF00300x Rx d 8 FD 4B 3F FF FF FF FF FF
15.400000 1 18FEF100x Rx d 8 F7 05 4B 40 FF FF FF FF
15.450000 1 CF00300x Rx d 8 FD 4B 3F FF FF FF FF FF
15.500000 1 CF00400x Rx d 8 FF 7D 9B A5 4B FF FF FF
15.500000 1 CF00300x Rx d 8 FD 4B 3F FF FF FF FF FF
15.500000 1 18FEF100x Rx d 8 F7 02 4B 40 FF FF FF FF
15.550000 1 CF00300x Rx d 8 FD 4B 3F FF FF FF FF FF
15.600000 1 CF00400x Rx d 8 FF 7D 9B 56 4B FF FF FF
15.600000 1 CF00300x Rx d 8 FD 4B 3F FF FF FF FF FF
15.600000 1 18FEF100x Rx d 8 F7 01 4B 40 FF FF FF FF
15.650000 1 CF00300x Rx d 8 FD 4B 3F FF FF FF FF FF
15.700000 1 CF00400x Rx d 8 FF 7D 9B 06 4B FF FF FF
15.700000 1 CF00300x Rx d 8 FD 4B 3F FF FF FF FF FF
15.700000 1 18FEF100x Rx d 8 F7 00 4B 40 FF FF FF FF
15.750000 1 CF00300x Rx d 8 FD 4B 3F FF FF FF FF FF
15.800000 1 CF00400x Rx d 8 FF 7D 9B B6 4A FF FF FF
15.800000 1 CF00300x Rx d 8 FD 4B 3F FF FF FF FF FF
15.800000 1 18FEF100x Rx d 8 F7 00 4B 40 FF FF FF FF
15.850000 1 CF00300x Rx d 8 FD 4B 3F FF FF FF FF FF
15.900000 1 CF00400x Rx d 8 FF 7D 9B 67 4A FF FF FF
15.900000 1 CF00300x Rx d 8 FD 4B 3F FF FF FF FF FF
15.900000 1 18FEF100x Rx d 8 F7 02 4B 40 FF FF FF FF
15.950000 1 CF00300x Rx d 8 FD 4B 3F FF FF FF FF FF
16.000000 1 CF00400x Rx d 8 FF 7D 9B 1A 4A FF FF FF
16.000000 1 CF00300x Rx d 8 FD 4B 3F FF FF FF FF FF
16.000000 1 18FEF100x Rx d 8 F7 05 4B 40 FF FF FF FF
16.050000 1 CF00300x Rx d 8 FD 4B 3F FF FF FF FF FF
16.100000 1 CF00400x Rx d 8 FF 7D 9B CE 49 FF FF FF
16.100000 1 CF00300x Rx d 8 FD 4B 3F FF FF FF FF FF
16.100000 1 18FEF100x Rx d 8 F7 09 4B 40 FF FF FF FF
16.150000 1 CF00300x Rx d 8 FD 4C 3F FF FF FF FF FF
16.200000 1 CF00400x Rx d 8 FF 7D 9B 86 49 FF FF FF
16.200000 1 CF00300x Rx d 8 FD 4C 3F FF FF FF FF FF
16.200000 1 18FEF100x Rx d 8 F7 0E 4B 40 FF FF FF FF
16.250000 1 CF00300x Rx d 8 FD 4C 3F FF FF FF FF FF
16.300000 1 CF00400x Rx d 8 FF 7D 9B 42 49 FF FF FF
16.300000 1 CF00300x Rx d 8 FD 4C 3F FF FF FF FF FF
16.300000 1 18FEF100x Rx d 8 F7 14 4B 40 FF FF FF FF
16.350000 1 CF00300x Rx d 8 FD 4C 3F FF FF FF FF FF
16.400000 1 CF00400x Rx d 8 FF 7D 9B 02 49 FF FF FF
16.400000 1 CF00300x Rx d 8 FD 4C 3F FF FF FF FF FF
16.400000 1 18FEF100x Rx d 8 F7 1B 4B 40 FF FF FF FF
16.450000 1 CF00300x Rx d 8 FD 4D 3E FF FF FF FF FF
16.500000 1 CF00400x Rx d 8 FF 7D 9B C7 48 FF FF FF
16.500000 1 CF00300x Rx d 8 FD 4D 3E FF FF FF FF FF
16.500000 1 18FEF100x Rx d 8 F7 24 4B 40 FF FF FF FF
16.550000 1 CF00300x Rx d 8 FD 4D 3E FF FF FF FF FF
16.600000 1 CF00400x Rx d 8 FF 7D 9B 91 48 FF FF FF
16.600000 1 CF00300x Rx d 8 FD 4D 3E FF FF FF FF FF
16.600000 1 18FEF100x Rx d 8 F7 2E 4B 40 FF FF FF FF
16.650000 1 CF00300x Rx d 8 FD 4E 3E FF FF FF FF FF
16.700000 1 CF00400x Rx d 8 FF 7D 9B 62 48 FF FF FF
16.700000 1 CF00300x Rx d 8 FD 4E 3E FF FF FF FF FF
16.700000 1 18FEF100x Rx d 8 F7 38 4B 40 FF FF FF FF
16.750000 1 CF00300x Rx d 8 FD 4E 3E FF FF FF FF FF
16.800000 1 CF00400x Rx d 8 FF 7D 9B 3A 48 FF FF FF
16.800000 1 CF00300x Rx d 8 FD 4E 3E FF FF FF FF FF
16.800000 1 18FEF100x Rx d 8 F7 44 4B 40 FF FF FF FF
16.850000 1 CF00300x Rx d 8 FD 4F 3E FF FF FF FF FF
16.900000 1 CF00400x Rx d 8 FF 7D 9B 19 48 FF FF FF
16.900000 1 CF00300x Rx d 8 FD 4F 3E FF FF FF FF FF
16.900000 1 18FEF100x Rx d 8 F7 51 4B 40 FF FF FF FF
16.950000 1 CF00300x Rx d 8 FD 4F 3E FF FF FF FF FF
17.000000 1 CF00400x Rx d 8 FF 7D 9B FF 47 FF FF FF
17.000000 1 CF00300x Rx d 8 FD 50 3D FF FF FF FF FF
17.000000 1 18FEF100x Rx d 8 F7 5F 4B 40 FF FF FF FF
17.050000 1 CF00300x Rx d 8 FD 50 3D FF FF FF FF FF
17.100000 1 CF00400x Rx d 8 FF 7D 9B ED 47 FF FF FF
17.100000 1 CF00300x Rx d 8 FD 50 3D FF FF FF FF FF
17.100000 1 18FEF100x Rx d 8 F7 6E 4B 40 FF FF FF FF
17.150000 1 CF00300x Rx d 8 FD 51 3D FF FF FF FF FF
17.200000 1 CF00400x Rx d 8 FF 7D 9B E2 47 FF FF FF
17.200000 1 CF00300x Rx d 8 FD 51 3D FF FF FF FF FF
17.200000 1 18FEF100x Rx d 8 F7 7E 4B 40 FF FF FF FF
17.250000 1 CF00300x Rx d 8 FD 52 3D FF FF FF FF FF
17.300000 1 CF00400x Rx d 8 FF 7D 9B E0 47 FF FF FF
17.300000 1 CF00300x Rx d 8 FD 52 3D FF FF FF FF FF
17.300000 1 18FEF100x Rx d 8 F7 8F 4B 40 FF FF FF FF
17.350000 1 CF00300x Rx d 8 FD 52 3C FF FF FF FF FF
17.400000 1 CF00400x Rx d 8 FF 7D 9B E6 47 FF FF FF
17.400000 1 CF00300x Rx d 8 FD 53 3C FF FF FF FF FF
17.400000 1 18FEF100x Rx d 8 F7 A1 4B 40 FF FF FF FF
17.450000 1 CF00300x Rx d 8 FD 53 3C FF FF FF FF FF
17.500000 1 CF00400x Rx d 8 FF 7D 9B F3 47 FF FF FF
17.500000 1 CF00300x Rx d 8 FD 54 3C FF FF FF FF FF
17.500000 1 18FEF100x Rx d 8 F7 B5 4B 40 FF FF FF FF
17.550000 1 CF00300x Rx d 8 FD 54 3C FF FF FF FF FF
17.600000 1 CF00400x Rx d 8 FF 7D 9B 09 48 FF FF FF
17.600000 1 CF00300x Rx d 8 FD 54 3C FF FF FF FF FF
17.600000 1 18FEF100x Rx d 8 F7 C9 4B 40 FF FF FF FF
17.650000 1 CF00300x Rx d 8 FD 55 3C FF FF FF FF FF
17.700000 1 CF00400x Rx d 8 FF 7D 9B 26 48 FF FF FF
17.700000 1 CF00300x Rx d 8 FD 55 3B FF FF FF FF FF
17.700000 1 18FEF100x Rx d 8 F7 DE 4B 40 FF FF FF FF
17.750000 1 CF00300x Rx d 8 FD 56 3B FF FF FF FF FF
17.800000 1 CF00400x Rx d 8 FF 7D 9B 4A 48 FF FF FF
17.800000 1 CF00300x Rx d 8 FD 56 3B FF FF FF FF FF
17.800000 1 18FEF100x Rx d 8 F7 F4 4B 40 FF FF FF FF
17.850000 1 CF00300x Rx d 8 FD 57 3B FF FF FF FF FF
17.900000 1 CF00400x Rx d 8 FF 7D 9B 75 48 FF FF FF
17.900000 1 CF00300x Rx d 8 FD 57 3B FF FF FF FF FF
17.900000 1 18FEF100x Rx d 8 F7 0B 4C 40 FF FF FF FF
17.950000 1 CF00300x Rx d 8 FD 57 3A FF FF FF FF FF
18.000000 1 CF00400x Rx d 8 FF 7D 9B A7 48 FF FF FF
18.000000 1 CF00300x Rx d 8 FD 58 3A FF FF FF FF FF
18.000000 1 18FEF100x Rx d 8 F7 23 4C 40 FF FF FF FF
18.050000 1 CF00300x Rx d 8 FD 58 3A FF FF FF FF FF
18.100000 1 CF00400x Rx d 8 FF 7D 9B DF 48 FF FF FF
18.100000 1 CF00300x Rx d 8 FD 59 3A FF FF FF FF FF
18.100000 1 18FEF100x Rx d 8 F7 3C 4C 40 FF FF FF FF
18.150000 1 CF00300x Rx d 8 FD 59 3A FF FF FF FF FF
18.200000 1 CF00400x Rx d 8 FF 7D 9B 1C 49 FF FF FF
18.200000 1 CF00300x Rx d 8 FD 5A 3A FF FF FF FF FF
18.200000 1 18FEF100x Rx d 8 F7 55 4C 40 FF FF FF FF
18.250000 1 CF00300x Rx d 8 FD 5A 39 FF FF FF FF FF
18.300000 1 CF00400x Rx d 8 FF 7D 9B 5E 49 FF FF FF
18.300000 1 CF00300x Rx d 8 FD 5B 39 FF FF FF FF FF
18.300000 1 18FEF100x Rx d 8 F7 70 4C 40 FF FF FF FF
18.350000 1 CF00300x Rx d 8 FD 5B 39 FF FF FF FF FF
18.400000 1 CF00400x Rx d 8 FF 7D 9B A4 49 FF FF FF
18.400000 1 CF00300x Rx d 8 FD 5B 39 FF FF FF FF FF
18.400000 1 18FEF100x Rx d 8 F7 8B 4C 40 FF FF FF FF
18.450000 1 CF00300x Rx d 8 FD 5C 39 FF FF FF FF FF
18.500000 1 CF00400x Rx d 8 FF 7D 9B EE 49 FF FF FF
18.500000 1 CF00300x Rx d 8 FD 5C 38 FF FF FF FF FF
18.500000 1 18FEF100x Rx d 8 F7 A7 4C 40 FF FF FF FF
18.550000 1 CF00300x Rx d 8 FD 5D 38 FF FF FF FF FF
18.600000 1 CF00400x Rx d 8 FF 7D 9B 3A 4A FF FF FF
18.600000 1 CF00300x Rx d 8 FD 5D 38 FF FF FF FF FF
18.600000 1 18FEF100x Rx d 8 F7 C4 4C 40 FF FF FF FF
18.650000 1 CF00300x Rx d 8 FD 5D 38 FF FF FF FF FF
18.700000 1 CF00400x Rx d 8 FF 7D 9B 89 4A FF FF FF
18.700000 1 CF00300x Rx d 8 FD 5E 38 FF FF FF FF FF
18.700000 1 18FEF100x Rx d 8 F7 E2 4C 40 FF FF FF FF
18.750000 1 CF00300x Rx d 8 FD 5E 37 FF FF FF FF FF
18.800000 1 CF00400x Rx d 8 FF 7D 9B D8 4A FF FF FF
18.800000 1 CF00300x Rx d 8 FD 5E 37 FF FF FF FF FF
18.800000 1 18FEF100x Rx d 8 F7 00 4D 40 FF FF FF FF
18.850000 1 CF00300x Rx d 8 FD 5F 37 FF FF FF FF FF
18.900000 1 CF00400x Rx d 8 FF 7D 9B 28 4B FF FF FF
18.900000 1 CF00300x Rx d 8 FD 5F 37 FF FF FF FF FF
18.900000 1 18FEF100x Rx d 8 F7 1F 4D 40 FF FF FF FF
18.950000 1 CF00300x Rx d 8 FD 60 37 FF FF FF FF FF
19.000000 1 CF00400x Rx d 8 FF 7D 9B 78 4B FF FF FF
19.000000 1 CF00300x Rx d 8 FD 60 36 FF FF FF FF FF
19.000000 1 18FEF100x Rx d 8 F7 3F 4D 40 FF FF FF FF
19.050000 1 CF00300x Rx d 8 FD 60 36 FF FF FF FF FF
19.100000 1 CF00400x Rx d 8 FF 7D 9B C6 4B FF FF FF
19.100000 1 CF00300x Rx d 8 FD 60 36 FF FF FF FF FF
19.100000 1 18FEF100x Rx d 8 F7 5F 4D 40 FF FF FF FF
19.150000 1 CF00300x Rx d 8 FD 61 36 FF FF FF FF FF
19.200000 1 CF00400x Rx d 8 FF 7D 9B 13 4C FF FF FF
19.200000 1 CF00300x Rx d 8 FD 61 36 FF FF FF FF FF
19.200000 1 18FEF100x Rx d 8 F7 80 4D 40 FF FF FF FF
19.250000 1 CF00300x Rx d 8 FD 61 35 FF FF FF FF FF
19.300000 1 CF00400x Rx d 8 FF 7D 9B 5C 4C FF FF FF
19.300000 1 CF00300x Rx d 8 FD 62 35 FF FF FF FF FF
19.300000 1 18FEF100x Rx d 8 F7 A2 4D 40 FF FF FF FF
19.350000 1 CF00300x Rx d 8 FD 62 35 FF FF FF FF FF
19.400000 1 CF00400x Rx d 8 FF 7D 9B A2 4C FF FF FF
19.400000 1 CF00300x Rx d 8 FD 62 35 FF FF FF FF FF
19.400000 1 18FEF100x Rx d 8 F7 C4 4D 40 FF FF FF FF
19.450000 1 CF00300x Rx d 8 FD 62 35 FF FF FF FF FF
19.500000 1 CF00400x Rx d 8 FF 7D 9B E4 4C FF FF FF
19.500000 1 CF00300x Rx d 8 FD 63 34 FF FF FF FF FF
19.500000 1 18FEF100x Rx d 8 F7 E7 4D 40 FF FF FF FF
19.550000 1 CF00300x Rx d 8 FD 63 34 FF FF FF FF FF
19.600000 1 CF00400x Rx d 8 FF 7D 9B 22 4D FF FF FF
19.600000 1 CF00300x Rx d 8 FD 63 34 FF FF FF FF FF
19.600000 1 18FEF100x Rx d 8 F7 0A 4E 40 FF FF FF FF
19.650000 1 CF00300x Rx d 8 FD 63 34 FF FF FF FF FF
19.700000 1 CF00400x Rx d 8 FF 7D 9B 59 4D FF FF FF
19.700000 1 CF00300x Rx d 8 FD 63 34 FF FF FF FF FF
19.700000 1 18FEF100x Rx d 8 F7 2D 4E 40 FF FF FF FF
19.750000 1 CF00300x Rx d 8 FD 63 34 FF FF FF FF FF
19.800000 1 CF00400x Rx d 8 FF 7D 9B 8B 4D FF FF FF
19.800000 1 CF00300x Rx d 8 FD 64 33 FF FF FF FF FF
19.800000 1 18FEF100x Rx d 8 F7 51 4E 40 FF FF FF FF
19.850000 1 CF00300x Rx d 8 FD 64 33 FF FF FF FF FF
19.900000 1 CF00400x Rx d 8 FF 7D 9B B6 4D FF FF FF
19.900000 1 CF00300x Rx d 8 FD 64 33 FF FF FF FF FF
19.900000 1 18FEF100x Rx d 8 F7 76 4E 40 FF FF FF FF
19.950000 1 CF00300x Rx d 8 FD 64 33 FF FF FF FF FF
20.000000 1 CF00400x Rx d 8 FF 7D 9B DA 4D FF FF FF
20.000000 1 CF00300x Rx d 8 FD 64 33 FF FF FF FF FF
20.000000 1 18FEF100x Rx d 8 F7 9A 4E 40 FF FF FF FF
20.050000 1 CF00300x Rx d 8 FD 64 32 FF FF FF FF FF
20.100000 1 CF00400x Rx d 8 FF 7D 9B F7 4D FF FF FF
20.100000 1 CF00300x Rx d 8 FD 64 32 FF FF FF FF FF
20.100000 1 18FEF100x Rx d 8 F7 BF 4E 40 FF FF FF FF
20.150000 1 CF00300x Rx d 8 FD 64 32 FF FF FF FF FF
20.200000 1 CF00400x Rx d 8 FF 7D 9B 0D 4E FF FF FF
20.200000 1 CF00300x Rx d 8 FD 64 32 FF FF FF FF FF
20.200000 1 18FEF100x Rx d 8 F7 E5 4E 40 FF FF FF FF
20.250000 1 CF00300x Rx d 8 FD 64 32 FF FF FF FF FF
20.300000 1 CF00400x Rx d 8 FF 7D 9B 1A 4E FF FF FF
20.300000 1 CF00300x Rx d 8 FD 64 32 FF FF FF FF FF
20.300000 1 18FEF100x Rx d 8 F7 0A 4F 40 FF FF FF FF
20.350000 1 CF00300x Rx d 8 FD 64 32 FF FF FF FF FF
20.400000 1 CF00400x Rx d 8 FF 7D 9B 20 4E FF FF FF
20.400000 1 CF00300x Rx d 8 FD 64 31 FF FF FF FF FF
20.400000 1 18FEF100x Rx d 8 F7 30 4F 40 FF FF FF FF
20.450000 1 CF00300x Rx d 8 FD 64 31 FF FF FF FF FF
20.500000 1 CF00400x Rx d 8 FF 7D 9B 1D 4E FF FF FF
20.500000 1 CF00300x Rx d 8 FD 64 31 FF FF FF FF FF
20.500000 1 18FEF100x Rx d 8 F7 56 4F 40 FF FF FF FF
20.550000 1 CF00300x Rx d 8 FD 64 31 FF FF FF FF FF
20.600000 1 CF00400x Rx d 8 FF 7D 9B 13 4E FF FF FF
20.600000 1 CF00300x Rx d 8 FD 64 31 FF FF FF FF FF
20.600000 1 18FEF100x Rx d 8 F7 7C 4F 40 FF FF FF FF
20.650000 1 CF00300x Rx d 8 FD 63 31 FF FF FF FF FF
20.700000 1 CF00400x Rx d 8 FF 7D 9B 01 4E FF FF FF
20.700000 1 CF00300x Rx d 8 FD 63 31 FF FF FF FF FF
20.700000 1 18FEF100x Rx d 8 F7 A2 4F 40 FF FF FF FF
20.750000 1 CF00300x Rx d 8 FD 63 30 FF FF FF FF FF
20.800000 1 CF00400x Rx d 8 FF 7D 9B E7 4D FF FF FF
20.800000 1 CF00300x Rx d 8 FD 63 30 FF FF FF FF FF
20.800000 1 18FEF100x Rx d 8 F7 C9 4F 40 FF FF FF FF
20.850000 1 CF00300x Rx d 8 FD 63 30 FF FF FF FF FF
20.900000 1 CF00400x Rx d 8 FF 7D 9B C6 4D FF FF FF
20.900000 1 CF00300x Rx d 8 FD 63 30 FF FF FF FF FF
20.900000 1 18FEF100x Rx d 8 F7 EF 4F 40 FF FF FF FF
20.950000 1 CF00300x Rx d 8 FD 62 30 FF FF FF FF FF
21.000000 1 CF00400x Rx d 8 FF 7D 9B 9D 4D FF FF FF
21.000000 1 CF00300x Rx d 8 FD 62 30 FF FF FF FF FF
21.000000 1 18FEF100x Rx d 8 F7 16 50 40 FF FF FF FF
21.050000 1 CF00300x Rx d 8 FD 62 30 FF FF FF FF FF
21.100000 1 CF00400x Rx d 8 FF 7D 9B 6E 4D FF FF FF
21.100000 1 CF00300x Rx d 8 FD 62 30 FF FF FF FF FF
21.100000 1 18FEF100x Rx d 8 F7 3C 50 40 FF FF FF FF
21.150000 1 CF00300x Rx d 8 FD 61 30 FF FF FF FF FF
21.200000 1 CF00400x Rx d 8 FF 7D 9B 39 4D FF FF FF
21.200000 1 CF00300x Rx d 8 FD 61 30 FF FF FF FF FF
21.200000 1 18FEF100x Rx d 8 F7 62 50 40 FF FF FF FF
21.250000 1 CF00300x Rx d 8 FD 61 30 FF FF FF FF FF
21.300000 1 CF00400x Rx d 8 FF 7D 9B FE 4C FF FF FF
21.300000 1 CF00300x Rx d 8 FD 60 2F FF FF FF FF FF
21.300000 1 18FEF100x Rx d 8 F7 88 50 40 FF FF FF FF
21.350000 1 CF00300x Rx d 8 FD 60 2F FF FF FF FF FF
21.400000 1 CF00400x Rx d 8 FF 7D 9B BE 4C FF FF FF
21.400000 1 CF00300x Rx d 8 FD 60 2F FF FF FF FF FF
21.400000 1 18FEF100x Rx d 8 F7 AF 50 40 FF FF FF FF
21.450000 1 CF00300x Rx d 8 FD 5F 2F FF FF FF FF FF
21.500000 1 CF00400x Rx d 8 FF 7D 9B 79 4C FF FF FF
21.500000 1 CF00300x Rx d 8 FD 5F 2F FF FF FF FF FF
21.500000 1 18FEF100x Rx d 8 F7 D5 50 40 FF FF FF FF
21.550000 1 CF00300x Rx d 8 FD 5F 2F FF FF FF FF FF
21.600000 1 CF00400x Rx d 8 FF 7D 9B 31 4C FF FF FF
21.600000 1 CF00300x Rx d 8 FD 5E 2F FF FF FF FF FF
21.600000 1 18FEF100x Rx d 8 F7 FA 50 40 FF FF FF FF
21.650000 1 CF00300x Rx d 8 FD 5E 2F FF FF FF FF FF
21.700000 1 CF00400x Rx d 8 FF 7D 9B E6 4B FF FF FF
21.700000 1 CF00300x Rx d 8 FD 5E 2F FF FF FF FF FF
21.700000 1 18FEF100x Rx d 8 F7 20 51 40 FF FF FF FF
21.750000 1 CF00300x Rx d 8 FD 5D 2F FF FF FF FF FF
21.800000 1 CF00400x Rx d 8 FF 7D 9B 98 4B FF FF FF
21.800000 1 CF00300x Rx d 8 FD 5D 2F FF FF FF FF FF
21.800000 1 18FEF100x Rx d 8 F7 45 51 40 FF FF FF FF
21.850000 1 CF00300x Rx d 8 FD 5D 2F FF FF FF FF FF
21.900000 1 CF00400x Rx d 8 FF 7D 9B 49 4B FF FF FF
21.900000 1 CF00300x Rx d 8 FD 5C 2F FF FF FF FF FF
21.900000 1 18FEF100x Rx d 8 F7 6A 51 40 FF FF FF FF
21.950000 1 CF00300x Rx d 8 FD 5C 2F FF FF FF FF FF
22.000000 1 CF00400x Rx d 8 FF 7D 91 00 4B FF FF FF
22.000000 1 CF00300x Rx d 8 FD 4B 32 FF FF FF FF FF
22.000000 1 18FEF100x Rx d 8 F7 00 50 00 FF FF FF FF
22.050000 1 CF00300x Rx d 8 FD 4A 32 FF FF FF FF FF
22.100000 1 CF00400x Rx d 8 FF 7D 91 60 4A FF FF FF
22.100000 1 CF00300x Rx d 8 FD 4A 31 FF FF FF FF FF
22.100000 1 18FEF100x Rx d 8 F7 00 4F 00 FF FF FF FF
22.150000 1 CF00300x Rx d 8 FD 49 31 FF FF FF FF FF
22.200000 1 CF00400x Rx d 8 FF 7D 90 C0 49 FF FF FF
22.200000 1 CF00300x Rx d 8 FD 48 31 FF FF FF FF FF
22.200000 1 18FEF100x Rx d 8 F7 00 4E 00 FF FF FF FF
22.250000 1 CF00300x Rx d 8 FD 48 31 FF FF FF FF FF
22.300000 1 CF00400x Rx d 8 FF 7D 90 20 49 FF FF FF
22.300000 1 CF00300x Rx d 8 FD 47 30 FF FF FF FF FF
22.300000 1 18FEF100x Rx d 8 F7 00 4D 00 FF FF FF FF
22.350000 1 CF00300x Rx d 8 FD 47 30 FF FF FF FF FF
22.400000 1 CF00400x Rx d 8 FF 7D 8F 80 48 FF FF FF
22.400000 1 CF00300x Rx d 8 FD 46 30 FF FF FF FF FF
22.400000 1 18FEF100x Rx d 8 F7 00 4C 00 FF FF FF FF
22.450000 1 CF00300x Rx d 8 FD 45 2F FF FF FF FF FF
22.500000 1 CF00400x Rx d 8 FF 7D 8F E0 47 FF FF FF
22.500000 1 CF00300x Rx d 8 FD 45 2F FF FF FF FF FF
22.500000 1 18FEF100x Rx d 8 F7 00 4B 00 FF FF FF FF
22.550000 1 CF00300x Rx d 8 FD 44 2F FF FF FF FF FF
22.600000 1 CF00400x Rx d 8 FF 7D 8F 40 47 FF FF FF
22.600000 1 CF00300x Rx d 8 FD 43 2F FF FF FF FF FF
22.600000 1 18FEF100x Rx d 8 F7 00 4A 00 FF FF FF FF
22.650000 1 CF00300x Rx d 8 FD 43 2E FF FF FF FF FF
22.700000 1 CF00400x Rx d 8 FF 7D 8E A0 46 FF FF FF
22.700000 1 CF00300x Rx d 8 FD 42 2E FF FF FF FF FF
22.700000 1 18FEF100x Rx d 8 F7 00 49 00 FF FF FF FF
22.750000 1 CF00300x Rx d 8 FD 42 2E FF FF FF FF FF
22.800000 1 CF00400x Rx d 8 FF 7D 8E 00 46 FF FF FF
22.800000 1 CF00300x Rx d 8 FD 41 2D FF FF FF FF FF
22.800000 1 18FEF100x Rx d 8 F7 00 48 00 FF FF FF FF
22.850000 1 CF00300x Rx d 8 FD 40 2D FF FF FF FF FF
22.900000 1 CF00400x Rx d 8 FF 7D 8E 60 45 FF FF FF
22.900000 1 CF00300x Rx d 8 FD 40 2D FF FF FF FF FF
22.900000 1 18FEF100x Rx d 8 F7 00 47 00 FF FF FF FF
22.950000 1 CF00300x Rx d 8 FD 3F 2D FF FF FF FF FF
23.000000 1 CF00400x Rx d 8 FF 7D 8D C0 44 FF FF FF
23.000000 1 CF00300x Rx d 8 FD 3E 2C FF FF FF FF FF
23.000000 1 18FEF100x Rx d 8 F7 00 46 00 FF FF FF FF
23.050000 1 CF00300x Rx d 8 FD 3E 2C FF FF FF FF FF
23.100000 1 CF00400x Rx d 8 FF 7D 8D 20 44 FF FF FF
23.100000 1 CF00300x Rx d 8 FD 3D 2C FF FF FF FF FF
23.100000 1 18FEF100x Rx d 8 F7 00 45 00 FF FF FF FF
23.150000 1 CF00300x Rx d 8 FD 3D 2C FF FF FF FF FF
23.200000 1 CF00400x Rx d 8 FF 7D 8C 80 43 FF FF FF
23.200000 1 CF00300x Rx d 8 FD 3C 2B FF FF FF FF FF
23.200000 1 18FEF100x Rx d 8 F7 00 44 00 FF FF FF FF
23.250000 1 CF00300x Rx d 8 FD 3B 2B FF FF FF FF FF
23.300000 1 CF00400x Rx d 8 FF 7D 8C E0 42 FF FF FF
23.300000 1 CF00300x Rx d 8 FD 3B 2B FF FF FF FF FF
23.300000 1 18FEF100x Rx d 8 F7 00 43 00 FF FF FF FF
23.350000 1 CF00300x Rx d 8 FD 3A 2A FF FF FF FF FF
23.400000 1 CF00400x Rx d 8 FF 7D 8C 40 42 FF FF FF
23.400000 1 CF00300x Rx d 8 FD 39 2A FF FF FF FF FF
23.400000 1 18FEF100x Rx d 8 F7 00 42 00 FF FF FF FF
23.450000 1 CF00300x Rx d 8 FD 39 2A FF FF FF FF FF
23.500000 1 CF00400x Rx d 8 FF 7D 8B A0 41 FF FF FF
23.500000 1 CF00300x Rx d 8 FD 38 2A FF FF FF FF FF
23.500000 1 18FEF100x Rx d 8 F7 00 41 00 FF FF FF FF
23.550000 1 CF00300x Rx d 8 FD 38 29 FF FF FF FF FF
23.600000 1 CF00400x Rx d 8 FF 7D 8B 00 41 FF FF FF
23.600000 1 CF00300x Rx d 8 FD 37 29 FF FF FF FF FF
23.600000 1 18FEF100x Rx d 8 F7 00 40 10 FF FF FF FF
23.650000 1 CF00300x Rx d 8 FD 36 29 FF FF FF FF FF
23.700000 1 CF00400x Rx d 8 FF 7D 8B 60 40 FF FF FF
23.700000 1 CF00300x Rx d 8 FD 36 28 FF FF FF FF FF
23.700000 1 18FEF100x Rx d 8 F7 00 3F 10 FF FF FF FF
23.750000 1 CF00300x Rx d 8 FD 35 28 FF FF FF FF FF
23.800000 1 CF00400x Rx d 8 FF 7D 8A C0 3F FF FF FF
23.800000 1 CF00300x Rx d 8 FD 34 28 FF FF FF FF FF
23.800000 1 18FEF100x Rx d 8 F7 00 3E 10 FF FF FF FF
23.850000 1 CF00300x Rx d 8 FD 34 28 FF FF FF FF FF
23.900000 1 CF00400x Rx d 8 FF 7D 8A 20 3F FF FF FF
23.900000 1 CF00300x Rx d 8 FD 33 27 FF FF FF FF FF
23.900000 1 18FEF100x Rx d 8 F7 00 3D 10 FF FF FF FF
23.950000 1 CF00300x Rx d 8 FD 33 27 FF FF FF FF FF
24.000000 1 CF00400x Rx d 8 FF 7D 89 80 3E FF FF FF
24.000000 1 CF00300x Rx d 8 FD 32 27 FF FF FF FF FF
24.000000 1 18FEF100x Rx d 8 F7 00 3C 10 FF FF FF FF
24.050000 1 CF00300x Rx d 8 FD 31 26 FF FF FF FF FF
24.100000 1 CF00400x Rx d 8 FF 7D 89 E0 3D FF FF FF
24.100000 1 CF00300x Rx d 8 FD 31 26 FF FF FF FF FF
24.100000 1 18FEF100x Rx d 8 F7 00 3B 10 FF FF FF FF
24.150000 1 CF00300x Rx d 8 FD 30 26 FF FF FF FF FF
24.200000 1 CF00400x Rx d 8 FF 7D 89 40 3D FF FF FF
24.200000 1 CF00300x Rx d 8 FD 2F 26 FF FF FF FF FF
24.200000 1 18FEF100x Rx d 8 F7 00 3A 10 FF FF FF FF
24.250000 1 CF00300x Rx d 8 FD 2F 25 FF FF FF FF FF
24.300000 1 CF00400x Rx d 8 FF 7D 88 A0 3C FF FF FF
24.300000 1 CF00300x Rx d 8 FD 2E 25 FF FF FF FF FF
24.300000 1 18FEF100x Rx d 8 F7 00 39 10 FF FF FF FF
24.350000 1 CF00300x Rx d 8 FD 2E 25 FF FF FF FF FF
24.400000 1 CF00400x Rx d 8 FF 7D 88 00 3C FF FF FF
24.400000 1 CF00300x Rx d 8 FD 2D 24 FF FF FF FF FF
24.400000 1 18FEF100x Rx d 8 F7 00 38 10 FF FF FF FF
24.450000 1 CF00300x Rx d 8 FD 2C 24 FF FF FF FF FF
24.500000 1 CF00400x Rx d 8 FF 7D 88 60 3B FF FF FF
24.500000 1 CF00300x Rx d 8 FD 2C 24 FF FF FF FF FF
24.500000 1 18FEF100x Rx d 8 F7 00 37 10 FF FF FF FF
24.550000 1 CF00300x Rx d 8 FD 2B 24 FF FF FF FF FF
24.600000 1 CF00400x Rx d 8 FF 7D 87 C0 3A FF FF FF
24.600000 1 CF00300x Rx d 8 FD 2A 23 FF FF FF FF FF
24.600000 1 18FEF100x Rx d 8 F7 00 36 10 FF FF FF FF
24.650000 1 CF00300x Rx d 8 FD 2A 23 FF FF FF FF FF
24.700000 1 CF00400x Rx d 8 FF 7D 87 20 3A FF FF FF
24.700000 1 CF00300x Rx d 8 FD 29 23 FF FF FF FF FF
24.700000 1 18FEF100x Rx d 8 F7 00 35 10 FF FF FF FF
24.750000 1 CF00300x Rx d 8 FD 29 23 FF FF FF FF FF
24.800000 1 CF00400x Rx d 8 FF 7D 86 80 39 FF FF FF
24.800000 1 CF00300x Rx d 8 FD 28 22 FF FF FF FF FF
24.800000 1 18FEF100x Rx d 8 F7 00 34 10 FF FF FF FF
24.850000 1 CF00300x Rx d 8 FD 27 22 FF FF FF FF FF
24.900000 1 CF00400x Rx d 8 FF 7D 86 E0 38 FF FF FF
24.900000 1 CF00300x Rx d 8 FD 27 22 FF FF FF FF FF
24.900000 1 18FEF100x Rx d 8 F7 00 33 10 FF FF FF FF
24.950000 1 CF00300x Rx d 8 FD 26 21 FF FF FF FF FF
25.000000 1 CF00400x Rx d 8 FF 7D 86 40 38 FF FF FF
25.000000 1 CF00300x Rx d 8 FD 25 21 FF FF FF FF FF
25.000000 1 18FEF100x Rx d 8 F7 00 32 10 FF FF FF FF
25.050000 1 CF00300x Rx d 8 FD 25 21 FF FF FF FF FF
25.100000 1 CF00400x Rx d 8 FF 7D 85 A0 37 FF FF FF
25.100000 1 CF00300x Rx d 8 FD 24 21 FF FF FF FF FF
25.100000 1 18FEF100x Rx d 8 F7 00 31 10 FF FF FF FF
25.150000 1 CF00300x Rx d 8 FD 24 20 FF FF FF FF FF
25.200000 1 CF00400x Rx d 8 FF 7D 85 00 37 FF FF FF
25.200000 1 CF00300x Rx d 8 FD 23 20 FF FF FF FF FF
25.200000 1 18FEF100x Rx d 8 F7 00 30 10 FF FF FF FF
25.250000 1 CF00300x Rx d 8 FD 22 20 FF FF FF FF FF
25.300000 1 CF00400x Rx d 8 FF 7D 85 60 36 FF FF FF
25.300000 1 CF00300x Rx d 8 FD 22 1F FF FF FF FF FF
25.300000 1 18FEF100x Rx d 8 F7 00 2F 10 FF FF FF FF
25.350000 1 CF00300x Rx d 8 FD 21 1F FF FF FF FF FF
25.400000 1 CF00400x Rx d 8 FF 7D 84 C0 35 FF FF FF
25.400000 1 CF00300x Rx d 8 FD 20 1F FF FF FF FF FF
25.400000 1 18FEF100x Rx d 8 F7 00 2E 10 FF FF FF FF
25.450000 1 CF00300x Rx d 8 FD 20 1F FF FF FF FF FF
25.500000 1 CF00400x Rx d 8 FF 7D 84 20 35 FF FF FF
25.500000 1 CF00300x Rx d 8 FD 1F 1E FF FF FF FF FF
25.500000 1 18FEF100x Rx d 8 F7 00 2D 10 FF FF FF FF
25.550000 1 CF00300x Rx d 8 FD 1F 1E FF FF FF FF FF
25.600000 1 CF00400x Rx d 8 FF 7D 83 80 34 FF FF FF
25.600000 1 CF00300x Rx d 8 FD 1E 1E FF FF FF FF FF
25.600000 1 18FEF100x Rx d 8 F7 00 2C 10 FF FF FF FF
25.650000 1 CF00300x Rx d 8 FD 1D 1D FF FF FF FF FF
25.700000 1 CF00400x Rx d 8 FF 7D 83 E0 33 FF FF FF
25.700000 1 CF00300x Rx d 8 FD 1D 1D FF FF FF FF FF
25.700000 1 18FEF100x Rx d 8 F7 00 2B 10 FF FF FF FF
25.750000 1 CF00300x Rx d 8 FD 1C 1D FF FF FF FF FF
25.800000 1 CF00400x Rx d 8 FF 7D 83 40 33 FF FF FF
25.800000 1 CF00300x Rx d 8 FD 1B 1D FF FF FF FF FF
25.800000 1 18FEF100x Rx d 8 F7 00 2A 10 FF FF FF FF
25.850000 1 CF00300x Rx d 8 FD 1B 1C FF FF FF FF FF
25.900000 1 CF00400x Rx d 8 FF 7D 82 A0 32 FF FF FF
25.900000 1 CF00300x Rx d 8 FD 1A 1C FF FF FF FF FF
25.900000 1 18FEF100x Rx d 8 F7 00 29 10 FF FF FF FF
25.950000 1 CF00300x Rx d 8 FD 1A 1C FF FF FF FF FF
26.000000 1 CF00400x Rx d 8 FF 7D 82 00 32 FF FF FF
26.000000 1 CF00300x Rx d 8 FD 19 1B FF FF FF FF FF
26.000000 1 18FEF100x Rx d 8 F7 00 28 10 FF FF FF FF
26.050000 1 CF00300x Rx d 8 FD 18 1B FF FF FF FF FF
26.100000 1 CF00400x Rx d 8 FF 7D 82 60 31 FF FF FF
26.100000 1 CF00300x Rx d 8 FD 18 1B FF FF FF FF FF
26.100000 1 18FEF100x Rx d 8 F7 00 27 10 FF FF FF FF
26.150000 1 CF00300x Rx d 8 FD 17 1B FF FF FF FF FF
26.200000 1 CF00400x Rx d 8 FF 7D 81 C0 30 FF FF FF
26.200000 1 CF00300x Rx d 8 FD 16 1A FF FF FF FF FF
26.200000 1 18FEF100x Rx d 8 F7 00 26 10 FF FF FF FF
26.250000 1 CF00300x Rx d 8 FD 16 1A FF FF FF FF FF
26.300000 1 CF00400x Rx d 8 FF 7D 81 20 30 FF FF FF
26.300000 1 CF00300x Rx d 8 FD 15 1A FF FF FF FF FF
26.300000 1 18FEF100x Rx d 8 F7 00 25 10 FF FF FF FF
26.350000 1 CF00300x Rx d 8 FD 15 1A FF FF FF FF FF
26.400000 1 CF00400x Rx d 8 FF 7D 80 80 2F FF FF FF
26.400000 1 CF00300x Rx d 8 FD 14 19 FF FF FF FF FF
26.400000 1 18FEF100x Rx d 8 F7 00 24 10 FF FF FF FF
26.450000 1 CF00300x Rx d 8 FD 13 19 FF FF FF FF FF
26.500000 1 CF00400x Rx d 8 FF 7D 80 E0 2E FF FF FF
26.500000 1 CF00300x Rx d 8 FD 13 19 FF FF FF FF FF
26.500000 1 18FEF100x Rx d 8 F7 00 23 10 FF FF FF FF
26.550000 1 CF00300x Rx d 8 FD 12 18 FF FF FF FF FF
26.600000 1 CF00400x Rx d 8 FF 7D 80 40 2E FF FF FF
26.600000 1 CF00300x Rx d 8 FD 11 18 FF FF FF FF FF
26.600000 1 18FEF100x Rx d 8 F7 00 22 10 FF FF FF FF
26.650000 1 CF00300x Rx d 8 FD 11 18 FF FF FF FF FF
26.700000 1 CF00400x Rx d 8 FF 7D 7F A0 2D FF FF FF
26.700000 1 CF00300x Rx d 8 FD 10 18 FF FF FF FF FF
26.700000 1 18FEF100x Rx d 8 F7 00 21 10 FF FF FF FF
26.750000 1 CF00300x Rx d 8 FD 10 17 FF FF FF FF FF
26.800000 1 CF00400x Rx d 8 FF 7D 7F 00 2D FF FF FF
26.800000 1 CF00300x Rx d 8 FD 0F 17 FF FF FF FF FF
26.800000 1 18FEF100x Rx d 8 F7 00 20 10 FF FF FF FF
26.850000 1 CF00300x Rx d 8 FD 0E 17 FF FF FF FF FF
26.900000 1 CF00400x Rx d 8 FF 7D 7F 60 2C FF FF FF
26.900000 1 CF00300x Rx d 8 FD 0E 16 FF FF FF FF FF
26.900000 1 18FEF100x Rx d 8 F7 00 1F 10 FF FF FF FF
26.950000 1 CF00300x Rx d 8 FD 0D 16 FF FF FF FF FF
27.000000 1 CF00400x Rx d 8 FF 7D 7E C0 2B FF FF FF
27.000000 1 CF00300x Rx d 8 FD 0C 16 FF FF FF FF FF
27.000000 1 18FEF100x Rx d 8 F7 00 1E 10 FF FF FF FF
27.050000 1 CF00300x Rx d 8 FD 0C 16 FF FF FF FF FF
27.100000 1 CF00400x Rx d 8 FF 7D 7E 20 2B FF FF FF
27.100000 1 CF00300x Rx d 8 FD 0B 15 FF FF FF FF FF
27.100000 1 18FEF100x Rx d 8 F7 00 1D 10 FF FF FF FF
27.150000 1 CF00300x Rx d 8 FD 0B 15 FF FF FF FF FF
27.200000 1 CF00400x Rx d 8 FF 7D 7D 80 2A FF FF FF
27.200000 1 CF00300x Rx d 8 FD 0A 15 FF FF FF FF FF
27.200000 1 18FEF100x Rx d 8 F7 00 1C 10 FF FF FF FF
27.250000 1 CF00300x Rx d 8 FD 09 14 FF FF FF FF FF
27.300000 1 CF00400x Rx d 8 FF 7D 7D E0 29 FF FF FF
27.300000 1 CF00300x Rx d 8 FD 09 14 FF FF FF FF FF
27.300000 1 18FEF100x Rx d 8 F7 00 1B 10 FF FF FF FF
27.350000 1 CF00300x Rx d 8 FD 08 14 FF FF FF FF FF
27.400000 1 CF00400x Rx d 8 FF 7D 7D 40 29 FF FF FF
27.400000 1 CF00300x Rx d 8 FD 07 14 FF FF FF FF FF
27.400000 1 18FEF100x Rx d 8 F7 00 1A 10 FF FF FF FF
27.450000 1 CF00300x Rx d 8 FD 07 13 FF FF FF FF FF
27.500000 1 CF00400x Rx d 8 FF 7D 7D A0 28 FF FF FF
27.500000 1 CF00300x Rx d 8 FD 06 13 FF FF FF FF FF
27.500000 1 18FEF100x Rx d 8 F7 00 19 10 FF FF FF FF
27.550000 1 CF00300x Rx d 8 FD 06 13 FF FF FF FF FF
27.600000 1 CF00400x Rx d 8 FF 7D 7D 00 28 FF FF FF
27.600000 1 CF00300x Rx d 8 FD 05 12 FF FF FF FF FF
27.600000 1 18FEF100x Rx d 8 F7 00 18 10 FF FF FF FF
27.650000 1 CF00300x Rx d 8 FD 04 12 FF FF FF FF FF
27.700000 1 CF00400x Rx d 8 FF 7D 7D 60 27 FF FF FF
27.700000 1 CF00300x Rx d 8 FD 04 12 FF FF FF FF FF
27.700000 1 18FEF100x Rx d 8 F7 00 17 10 FF FF FF FF
27.750000 1 CF00300x Rx d 8 FD 03 12 FF FF FF FF FF
27.800000 1 CF00400x Rx d 8 FF 7D 7D C0 26 FF FF FF
27.800000 1 CF00300x Rx d 8 FD 02 11 FF FF FF FF FF
27.800000 1 18FEF100x Rx d 8 F7 00 16 10 FF FF FF FF
27.850000 1 CF00300x Rx d 8 FD 02 11 FF FF FF FF FF
27.900000 1 CF00400x Rx d 8 FF 7D 7D 20 26 FF FF FF
27.900000 1 CF00300x Rx d 8 FD 01 11 FF FF FF FF FF
27.900000 1 18FEF100x Rx d 8 F7 00 15 10 FF FF FF FF
27.950000 1 CF00300x Rx d 8 FD 01 11 FF FF FF FF FF
28.000000 1 CF00400x Rx d 8 FF 7D 7D 80 25 FF FF FF
28.000000 1 CF00300x Rx d 8 FD 00 10 FF FF FF FF FF
28.000000 1 18FEF100x Rx d 8 F7 00 14 10 FF FF FF FF
28.050000 1 CF00300x Rx d 8 FD 00 10 FF FF FF FF FF
28.100000 1 CF00400x Rx d 8 FF 7D 7D E0 24 FF FF FF
28.100000 1 CF00300x Rx d 8 FD 00 10 FF FF FF FF FF
28.100000 1 18FEF100x Rx d 8 F7 00 13 10 FF FF FF FF
28.150000 1 CF00300x Rx d 8 FD 00 0F FF FF FF FF FF
28.200000 1 CF00400x Rx d 8 FF 7D 7D 40 24 FF FF FF
28.200000 1 CF00300x Rx d 8 FD 00 0F FF FF FF FF FF
28.200000 1 18FEF100x Rx d 8 F7 00 12 10 FF FF FF FF
28.250000 1 CF00300x Rx d 8 FD 00 0F FF FF FF FF FF
28.300000 1 CF00400x Rx d 8 FF 7D 7D A0 23 FF FF FF
28.300000 1 CF00300x Rx d 8 FD 00 0F FF FF FF FF FF
28.300000 1 18FEF100x Rx d 8 F7 00 11 10 FF FF FF FF
28.350000 1 CF00300x Rx d 8 FD 00 0E FF FF FF FF FF
28.400000 1 CF00400x Rx d 8 FF 7D 7D 00 23 FF FF FF
28.400000 1 CF00300x Rx d 8 FD 00 0E FF FF FF FF FF
28.400000 1 18FEF100x Rx d 8 F7 00 10 10 FF FF FF FF
28.450000 1 CF00300x Rx d 8 FD 00 0E FF FF FF FF FF
28.500000 1 CF00400x Rx d 8 FF 7D 7D 60 22 FF FF FF
28.500000 1 CF00300x Rx d 8 FD 00 0D FF FF FF FF FF
28.500000 1 18FEF100x Rx d 8 F7 00 0F 10 FF FF FF FF
28.550000 1 CF00300x Rx d 8 FD 00 0D FF FF FF FF FF
28.600000 1 CF00400x Rx d 8 FF 7D 7D C0 21 FF FF FF
28.600000 1 CF00300x Rx d 8 FD 00 0D FF FF FF FF FF
28.600000 1 18FEF100x Rx d 8 F7 00 0E 10 FF FF FF FF
28.650000 1 CF00300x Rx d 8 FD 00 0D FF FF FF FF FF
28.700000 1 CF00400x Rx d 8 FF 7D 7D 20 21 FF FF FF
28.700000 1 CF00300x Rx d 8 FD 00 0C FF FF FF FF FF
28.700000 1 18FEF100x Rx d 8 F7 00 0D 10 FF FF FF FF
28.750000 1 CF00300x Rx d 8 FD 00 0C FF FF FF FF FF
28.800000 1 CF00400x Rx d 8 FF 7D 7D 80 20 FF FF FF
28.800000 1 CF00300x Rx d 8 FD 00 0C FF FF FF FF FF
28.800000 1 18FEF100x Rx d 8 F7 00 0C 10 FF FF FF FF
28.850000 1 CF00300x Rx d 8 FD 00 0B FF FF FF FF FF
28.900000 1 CF00400x Rx d 8 FF 7D 7D E0 1F FF FF FF
28.900000 1 CF00300x Rx d 8 FD 00 0B FF FF FF FF FF
28.900000 1 18FEF100x Rx d 8 F7 00 0B 10 FF FF FF FF
28.950000 1 CF00300x Rx d 8 FD 00 0B FF FF FF FF FF
29.000000 1 CF00400x Rx d 8 FF 7D 7D 40 1F FF FF FF
29.000000 1 CF00300x Rx d 8 FD 00 0B FF FF FF FF FF
29.000000 1 18FEF100x Rx d 8 F7 00 0A 10 FF FF FF FF
29.050000 1 CF00300x Rx d 8 FD 00 0A FF FF FF FF FF
29.100000 1 CF00400x Rx d 8 FF 7D 7D A0 1E FF FF FF
29.100000 1 CF00300x Rx d 8 FD 00 0A FF FF FF FF FF
29.100000 1 18FEF100x Rx d 8 F7 00 09 10 FF FF FF FF
29.150000 1 CF00300x Rx d 8 FD 00 0A FF FF FF FF FF
29.200000 1 CF00400x Rx d 8 FF 7D 7D 00 1E FF FF FF
29.200000 1 CF00300x Rx d 8 FD 00 09 FF FF FF FF FF
29.200000 1 18FEF100x Rx d 8 F7 00 08 10 FF FF FF FF
29.250000 1 CF00300x Rx d 8 FD 00 09 FF FF FF FF FF
29.300000 1 CF00400x Rx d 8 FF 7D 7D 60 1D FF FF FF
29.300000 1 CF00300x Rx d 8 FD 00 09 FF FF FF FF FF
29.300000 1 18FEF100x Rx d 8 F7 00 07 10 FF FF FF FF
29.350000 1 CF00300x Rx d 8 FD 00 09 FF FF FF FF FF
29.400000 1 CF00400x Rx d 8 FF 7D 7D C0 1C FF FF FF
29.400000 1 CF00300x Rx d 8 FD 00 08 FF FF FF FF FF
29.400000 1 18FEF100x Rx d 8 F7 00 06 10 FF FF FF FF
29.450000 1 CF00300x Rx d 8 FD 00 08 FF FF FF FF FF
29.500000 1 CF00400x Rx d 8 FF 7D 7D 20 1C FF FF FF
29.500000 1 CF00300x Rx d 8 FD 00 08 FF FF FF FF FF
29.500000 1 18FEF100x Rx d 8 F7 00 05 10 FF FF FF FF
29.550000 1 CF00300x Rx d 8 FD 00 08 FF FF FF FF FF
29.600000 1 CF00400x Rx d 8 FF 7D 7D 80 1B FF FF FF
29.600000 1 CF00300x Rx d 8 FD 00 07 FF FF FF FF FF
29.600000 1 18FEF100x Rx d 8 F7 00 04 10 FF FF FF FF
29.650000 1 CF00300x Rx d 8 FD 00 07 FF FF FF FF FF
29.700000 1 CF00400x Rx d 8 FF 7D 7D E0 1A FF FF FF
29.700000 1 CF00300x Rx d 8 FD 00 07 FF FF FF FF FF
29.700000 1 18FEF100x Rx d 8 F7 00 03 10 FF FF FF FF
29.750000 1 CF00300x Rx d 8 FD 00 06 FF FF FF FF FF
29.800000 1 CF00400x Rx d 8 FF 7D 7D 40 1A FF FF FF
29.800000 1 CF00300x Rx d 8 FD 00 06 FF FF FF FF FF
29.800000 1 18FEF100x Rx d 8 F7 00 02 10 FF FF FF FF
29.850000 1 CF00300x Rx d 8 FD 00 06 FF FF FF FF FF
29.900000 1 CF00400x Rx d 8 FF 7D 7D A0 19 FF FF FF
29.900000 1 CF00300x Rx d 8 FD 00 06 FF FF FF FF FF
29.900000 1 18FEF100x Rx d 8 F7 00 01 10 FF FF FF FF
29.950000 1 CF00300x Rx d 8 FD 00 05 FF FF FF FF FF
30.000000 1 CF00400x Rx d 8 FF 7D 7D 00 19 FF FF FF
30.000000 1 CF00300x Rx d 8 FD 00 05 FF FF FF FF FF
30.000000 1 18FEF100x Rx d 8 F7 00 00 10 FF FF FF FF
